(1597243084.254287) vcan0 118#5003851817800000
(1597243084.254694) vcan0 257#D3226B628A010000
(1597243084.261843) vcan0 266#DA07141813004701
(1597243084.263138) vcan0 118#4E04851814800000
(1597243084.272114) vcan0 266#DF07131713004701
(1597243084.273770) vcan0 118#4D05851812800000
(1597243084.275289) vcan0 257#C4136B628A010000
(1597243084.281777) vcan0 266#DD07131713004701
(1597243084.283256) vcan0 118#4D06851811800000
(1597243084.291741) vcan0 266#DC07131713004701
(1597243084.293302) vcan0 118#4E07851811800000
(1597243084.294691) vcan0 257#B5046B628A010000
(1597243084.303449) vcan0 266#DB07141813004701
(1597243084.306260) vcan0 118#4F08851811800000
(1597243084.313124) vcan0 266#DC07121513004701
(1597243084.316230) vcan0 118#5009851811800000
(1597243084.316784) vcan0 257#A5F56A628A010000
(1597243084.322074) vcan0 266#D507161814004801
(1597243084.323456) vcan0 118#510A851811800000
(1597243084.331882) vcan0 266#D107141615004801
(1597243084.333253) vcan0 118#520B851811800000
(1597243084.334667) vcan0 257#96E66A628A010000
(1597243084.342075) vcan0 266#D607151814004801
(1597243084.343429) vcan0 118#530C851811800000
(1597243084.352110) vcan0 266#DE07131713004801
(1597243084.354067) vcan0 118#540D851811800000
(1597243084.355478) vcan0 257#87D76A628A010000
(1597243084.362185) vcan0 266#E107131712004801
(1597243084.363525) vcan0 118#550E851811800000
(1597243084.372434) vcan0 266#D807141813004801
(1597243084.374842) vcan0 118#560F851811800000
(1597243084.375190) vcan0 257#78C86A628A010000
(1597243084.381972) vcan0 266#CE07151615004801
(1597243084.383356) vcan0 118#4700851811800000
(1597243084.392241) vcan0 266#D207161915004801
(1597243084.393529) vcan0 118#4801851811800000
(1597243084.394773) vcan0 257#69B96A628A010000
(1597243084.401916) vcan0 266#D407141614004801
(1597243084.403168) vcan0 118#4902851811800000
(1597243084.412586) vcan0 266#D807151A14004801
(1597243084.413746) vcan0 118#4A03851811800000
(1597243084.414915) vcan0 257#5AAA6A628A010000
(1597243084.422093) vcan0 266#D907121514004A01
(1597243084.423380) vcan0 118#4B04851811800000
(1597243084.432038) vcan0 266#D007161A14004A01
(1597243084.433414) vcan0 118#4C05851811800000
(1597243084.434736) vcan0 257#4B9B6A628A010000
(1597243084.442669) vcan0 266#D807131514004A01
(1597243084.443683) vcan0 118#4D06851811800000
(1597243084.452390) vcan0 266#CD07171915004A01
(1597243084.453430) vcan0 118#4E07851811800000
(1597243084.454698) vcan0 257#3C8C6A628A010000
(1597243084.461921) vcan0 266#D607121515004A01
(1597243084.463202) vcan0 118#4F08851811800000
(1597243084.472060) vcan0 266#CF07161815004A01
(1597243084.473429) vcan0 118#5009851811800000
(1597243084.474757) vcan0 257#3D8D6A628A010000
(1597243084.481857) vcan0 266#D207151715004A01
(1597243084.483144) vcan0 118#510A851811800000
(1597243084.491910) vcan0 266#CC07161715004A01
(1597243084.493496) vcan0 118#520B851811800000
(1597243084.494688) vcan0 257#297E6A6186010000
(1597243084.502295) vcan0 266#CD07161916004A01
(1597243084.503336) vcan0 118#530C851811800000
(1597243084.516424) vcan0 266#CB07161816004A01
(1597243084.517783) vcan0 118#540D851811800000
(1597243084.524170) vcan0 257#1A6F6A6186010000
(1597243084.526077) vcan0 266#CB07161916004D01
(1597243084.527024) vcan0 118#550E851811800000
(1597243084.532009) vcan0 266#CD07161815004D01
(1597243084.534666) vcan0 118#560F851811800000
(1597243084.535039) vcan0 257#FB506A6186010000
(1597243084.543186) vcan0 266#CB07161816004D01
(1597243084.543563) vcan0 118#4700851811800000
(1597243084.552287) vcan0 266#CC07161816004D01
(1597243084.553390) vcan0 118#4801851811800000
(1597243084.554717) vcan0 257#FC516A6186010000
(1597243084.562004) vcan0 266#CB07171816004D01
(1597243084.563430) vcan0 118#4A02851812800000
(1597243084.572093) vcan0 266#C807171917004D01
(1597243084.573426) vcan0 118#4C03851813800000
(1597243084.574854) vcan0 257#ED426A6186010000
(1597243084.582705) vcan0 266#C407171717004D01
(1597243084.583771) vcan0 118#4E04851814800000
(1597243084.592948) vcan0 266#C707171A17004D01
(1597243084.594167) vcan0 118#4F05851814800000
(1597243084.596149) vcan0 257#EE436A6186010000
(1597243084.602525) vcan0 266#C707161717004D01
(1597243084.603583) vcan0 118#5106851815800000
(1597243084.612779) vcan0 266#C607181A17004D01
(1597243084.613833) vcan0 118#5207851815800000
(1597243084.614895) vcan0 257#DF346A6186010000
(1597243084.622123) vcan0 266#C307171818004F01
(1597243084.623129) vcan0 118#5308851815800000
(1597243084.631749) vcan0 266#CA07171816004F01
(1597243084.633358) vcan0 118#5409851815800000
(1597243084.634453) vcan0 257#D0256A6186010000
(1597243084.641909) vcan0 266#C507171817004F01
(1597243084.643161) vcan0 118#560A851816800000
(1597243084.651889) vcan0 266#C407171817004F01
(1597243084.652960) vcan0 118#580B851817800000
(1597243084.654263) vcan0 257#D1266A6186010000
(1597243084.661766) vcan0 266#C207181917004F01
(1597243084.662946) vcan0 118#590C851817800000
(1597243084.671834) vcan0 266#C707171817004F01
(1597243084.674432) vcan0 118#5B0D851818800000
(1597243084.675508) vcan0 257#D2276A6186010000
(1597243084.681872) vcan0 266#C607171917004F01
(1597243084.683007) vcan0 118#5C0E851818800000
(1597243084.692512) vcan0 266#C907161817004F01
(1597243084.693588) vcan0 118#5D0F851818800000
(1597243084.694682) vcan0 257#C3186A6186010000
(1597243084.702226) vcan0 266#C807171916004F01
(1597243084.703339) vcan0 118#4E00851818800000
(1597243084.713274) vcan0 266#CB07161816004F01
(1597243084.714426) vcan0 118#4F01851818800000
(1597243084.718496) vcan0 257#B4096A6186010000
(1597243084.722713) vcan0 266#CB07161816005101
(1597243084.723926) vcan0 118#5002851818800000
(1597243084.732787) vcan0 266#CD07161816005101
(1597243084.734941) vcan0 118#5103851818800000
(1597243084.735342) vcan0 257#94EA696186010000
(1597243084.743303) vcan0 266#CD07161816005101
(1597243084.743740) vcan0 118#5204851818800000
(1597243084.752673) vcan0 266#CE07161815005101
(1597243084.753934) vcan0 118#5305851818800000
(1597243084.755027) vcan0 257#85DB696186010000
(1597243084.762892) vcan0 266#CF07151815005101
(1597243084.763295) vcan0 118#5406851818800000
(1597243084.772885) vcan0 266#CE07151815005101
(1597243084.775044) vcan0 118#5507851818800000
(1597243084.775444) vcan0 257#76CC696186010000
(1597243084.781948) vcan0 266#D107151815005101
(1597243084.783256) vcan0 118#5608851818800000
(1597243084.792797) vcan0 266#D007151815005101
(1597243084.793860) vcan0 118#5709851818800000
(1597243084.794943) vcan0 257#67BD696186010000
(1597243084.802717) vcan0 266#D107151815005101
(1597243084.803949) vcan0 118#580A851818800000
(1597243084.812898) vcan0 266#D107151815005101
(1597243084.815078) vcan0 118#580B851817800000
(1597243084.816158) vcan0 257#53AE696082010000
(1597243084.822074) vcan0 266#D107151815005301
(1597243084.823333) vcan0 118#5A0C851818800000
(1597243084.831875) vcan0 266#D307141714005301
(1597243084.833317) vcan0 118#5B0D851818800000
(1597243084.834784) vcan0 257#449F696082010000
(1597243084.842686) vcan0 266#D207151815005301
(1597243084.843717) vcan0 118#5C0E851818800000
(1597243084.852047) vcan0 266#D207151815005301
(1597243084.853364) vcan0 118#5D0F851818800000
(1597243084.854769) vcan0 257#3590696082010000
(1597243084.862409) vcan0 266#D307151815005301
(1597243084.863440) vcan0 118#4D00851817800000
(1597243084.872067) vcan0 266#D207151815005301
(1597243084.873517) vcan0 118#4F01851818800000
(1597243084.874899) vcan0 257#1671696082010000
(1597243084.881936) vcan0 266#D207151815005301
(1597243084.883305) vcan0 118#5002851818800000
(1597243084.891978) vcan0 266#D207151815005301
(1597243084.893728) vcan0 118#5103851818800000
(1597243084.894904) vcan0 257#0762696082010000
(1597243084.902231) vcan0 266#D307151814005301
(1597243084.903367) vcan0 118#5204851818800000
(1597243084.913942) vcan0 266#D307151814005301
(1597243084.914668) vcan0 118#5305851818800000
(1597243084.918094) vcan0 257#0863696082010000
(1597243084.928574) vcan0 266#D307151814005601
(1597243084.929144) vcan0 118#5306851817800000
(1597243084.934837) vcan0 266#D207151815005601
(1597243084.938782) vcan0 118#5507851818800000
(1597243084.944277) vcan0 257#F954696082010000
(1597243084.944832) vcan0 266#D207151815005601
(1597243084.946968) vcan0 118#5508851817800000
(1597243084.955792) vcan0 266#D307141814005601
(1597243084.960200) vcan0 118#5609851817800000
(1597243084.960826) vcan0 257#EA45696082010000
(1597243084.966475) vcan0 266#D207151815005601
(1597243084.967151) vcan0 118#570A851817800000
(1597243084.975641) vcan0 266#D207151814005601
(1597243084.980061) vcan0 118#580B851817800000
(1597243084.980745) vcan0 257#DB36696082010000
(1597243084.986384) vcan0 266#D207151815005601
(1597243084.986972) vcan0 118#590C851817800000
(1597243084.994751) vcan0 266#D207151815005601
(1597243084.998372) vcan0 118#5A0D851817800000
(1597243085.001206) vcan0 257#CC27696082010000
(1597243085.004496) vcan0 266#D307151814005601
(1597243085.006793) vcan0 118#5B0E851817800000
(1597243085.015541) vcan0 266#D307151815005601
(1597243085.018276) vcan0 118#5C0F851817800000
(1597243085.018596) vcan0 257#BD18696082010000
(1597243085.022009) vcan0 266#D207151815005701
(1597243085.023908) vcan0 118#4D00851817800000
(1597243085.032062) vcan0 266#D207151815005701
(1597243085.033874) vcan0 118#4E01851817800000
(1597243085.035653) vcan0 257#BE19696082010000
(1597243085.043205) vcan0 266#D207151815005701
(1597243085.043524) vcan0 118#4F02851817800000
(1597243085.052070) vcan0 266#D307151814005701
(1597243085.054309) vcan0 118#5003851817800000
(1597243085.055954) vcan0 257#AF0A696082010000
(1597243085.061883) vcan0 266#D207151815005701
(1597243085.063687) vcan0 118#5104851817800000
(1597243085.072160) vcan0 266#D307151815005701
(1597243085.073980) vcan0 118#5205851817800000
(1597243085.075776) vcan0 257#9FFB686082010000
(1597243085.081857) vcan0 266#D207151814005701
(1597243085.083655) vcan0 118#5306851817800000
(1597243085.092135) vcan0 266#D207151815005701
(1597243085.093920) vcan0 118#5407851817800000
(1597243085.095699) vcan0 257#A0FC686082010000
(1597243085.103165) vcan0 266#D307151815005701
(1597243085.103484) vcan0 118#5608851818800000
(1597243085.112670) vcan0 266#D207151815005701
(1597243085.114514) vcan0 118#5609851817800000
(1597243085.116382) vcan0 257#8CED685F7E010000
(1597243085.123568) vcan0 266#D207151815005801
(1597243085.126265) vcan0 118#580A851818800000
(1597243085.133004) vcan0 266#D207151815005801
(1597243085.134320) vcan0 118#590B851818800000
(1597243085.135668) vcan0 257#7DDE685F7E010000
(1597243085.142689) vcan0 266#D207151815005801
(1597243085.144007) vcan0 118#5A0C851818800000
(1597243085.151965) vcan0 266#D207151814005801
(1597243085.154186) vcan0 118#5B0D851818800000
(1597243085.155463) vcan0 257#7EDF685F7E010000
(1597243085.163383) vcan0 266#D207151814005801
(1597243085.164359) vcan0 118#5C0E851818800000
(1597243085.172431) vcan0 266#D207151815005801
(1597243085.174992) vcan0 118#5D0F851818800000
(1597243085.175412) vcan0 257#5FC0685F7E010000
(1597243085.181878) vcan0 266#D307151814005801
(1597243085.183249) vcan0 118#4E00851818800000
(1597243085.192054) vcan0 266#D207151814005801
(1597243085.193878) vcan0 118#4F01851818800000
(1597243085.195360) vcan0 257#50B1685F7E010000
(1597243085.201927) vcan0 266#D207151814005801
(1597243085.203312) vcan0 118#5002851818800000
(1597243085.213012) vcan0 266#D307151814005801
(1597243085.215374) vcan0 118#5103851818800000
(1597243085.215727) vcan0 257#41A2685F7E010000
(1597243085.221923) vcan0 266#D307151814005A01
(1597243085.223312) vcan0 118#5204851818800000
(1597243085.231934) vcan0 266#D307141814005A01
(1597243085.233798) vcan0 118#5305851818800000
(1597243085.235590) vcan0 257#3293685F7E010000
(1597243085.241922) vcan0 266#D307141814005A01
(1597243085.243739) vcan0 118#5506851819800000
(1597243085.251775) vcan0 266#D307141814005A01
(1597243085.253601) vcan0 118#5607851819800000
(1597243085.255390) vcan0 257#2384685F7E010000
(1597243085.261838) vcan0 266#D507141814005A01
(1597243085.263646) vcan0 118#5708851819800000
(1597243085.273712) vcan0 266#D507141814005A01
(1597243085.275073) vcan0 118#5809851819800000
(1597243085.275376) vcan0 257#1475685F7E010000
(1597243085.283080) vcan0 266#D407141814005A01
(1597243085.284058) vcan0 118#5A0A85181A800000
(1597243085.292378) vcan0 266#D507141814005A01
(1597243085.293946) vcan0 118#5B0B85181A800000
(1597243085.295402) vcan0 257#1576685F7E010000
(1597243085.302017) vcan0 266#D407141814005A01
(1597243085.303765) vcan0 118#5C0C85181A800000
(1597243085.311852) vcan0 266#D607141814005A01
(1597243085.314971) vcan0 118#5D0D85181A800000
(1597243085.316073) vcan0 257#0667685F7E010000
(1597243085.322589) vcan0 266#D807141814005B01
(1597243085.325890) vcan0 118#5F0E85181B800000
(1597243085.332569) vcan0 266#D507141814005B01
(1597243085.335320) vcan0 118#600F85181B800000
(1597243085.336003) vcan0 257#F758685F7E010000
(1597243085.342038) vcan0 266#D607141814005B01
(1597243085.343399) vcan0 118#510085181B800000
(1597243085.351724) vcan0 266#D707141814005B01
(1597243085.353124) vcan0 118#520185181B800000
(1597243085.354575) vcan0 257#E849685F7E010000
(1597243085.361658) vcan0 266#D907131813005B01
(1597243085.363404) vcan0 118#530285181B800000
(1597243085.372171) vcan0 266#DB07131813005B01
(1597243085.373596) vcan0 118#540385181B800000
(1597243085.375294) vcan0 257#E94A685F7E010000
(1597243085.381674) vcan0 266#DA07131813005B01
(1597243085.383072) vcan0 118#560485181C800000
(1597243085.391816) vcan0 266#D907141913005B01
(1597243085.393225) vcan0 118#580585181D800000
(1597243085.395390) vcan0 257#EA4B685F7E010000
(1597243085.401705) vcan0 266#DC07131813005B01
(1597243085.403194) vcan0 118#5A0685181E800000
(1597243085.411727) vcan0 266#DC07131713005B01
(1597243085.414838) vcan0 118#5B0785181E800000
(1597243085.415141) vcan0 257#DB3C685F7E010000
(1597243085.423033) vcan0 266#DD07131813005D01
(1597243085.423361) vcan0 118#5B0885181D800000
(1597243085.431927) vcan0 266#DE07131812005D01
(1597243085.435032) vcan0 118#5C0985181D800000
(1597243085.435565) vcan0 257#CC2D685F7E010000
(1597243085.441934) vcan0 266#DB07131813005D01
(1597243085.443298) vcan0 118#5D0A85181D800000
(1597243085.451708) vcan0 266#DD07121813005D01
(1597243085.454386) vcan0 118#5E0B85181D800000
(1597243085.454693) vcan0 257#C82E685E7A010000
(1597243085.461674) vcan0 266#E007121712005D01
(1597243085.463132) vcan0 118#5F0C85181D800000
(1597243085.471960) vcan0 266#E307121812005D01
(1597243085.473980) vcan0 118#610D85181E800000
(1597243085.475424) vcan0 257#C92F685E7A010000
(1597243085.481656) vcan0 266#DF07121812005D01
(1597243085.483166) vcan0 118#610E85181D800000
(1597243085.491818) vcan0 266#D707131713005D01
(1597243085.493777) vcan0 118#630F85181E800000
(1597243085.495351) vcan0 257#9A00685E7A010000
(1597243085.501708) vcan0 266#DD07131912005D01
(1597243085.503211) vcan0 118#540085181E800000
(1597243085.511637) vcan0 266#E107121812005D01
(1597243085.514782) vcan0 118#550185181E800000
(1597243085.515081) vcan0 257#8AF1675E7A010000
(1597243085.523931) vcan0 266#E607111711005E01
(1597243085.524679) vcan0 118#560285181E800000
(1597243085.533307) vcan0 266#E607121811005E01
(1597243085.534105) vcan0 118#570385181E800000
(1597243085.538490) vcan0 257#7BE2675E7A010000
(1597243085.542528) vcan0 266#E407121812005E01
(1597243085.543921) vcan0 118#580485181E800000
(1597243085.552654) vcan0 266#E307121812005E01
(1597243085.555224) vcan0 118#5A0585181F800000
(1597243085.555572) vcan0 257#6CD3675E7A010000
(1597243085.561914) vcan0 266#E107121912005E01
(1597243085.563315) vcan0 118#5B0685181F800000
(1597243085.573418) vcan0 266#E407111811005E01
(1597243085.573820) vcan0 118#5D07851820800000
(1597243085.576153) vcan0 257#6DD4675E7A010000
(1597243085.582933) vcan0 266#E507111711005E01
(1597243085.584083) vcan0 118#5E08851820800000
(1597243085.592251) vcan0 266#E507111811005E01
(1597243085.594805) vcan0 118#5F09851820800000
(1597243085.595943) vcan0 257#5EC5675E7A010000
(1597243085.602673) vcan0 266#EB07101711005E01
(1597243085.604080) vcan0 118#600A851820800000
(1597243085.612614) vcan0 266#EC07111811005E01
(1597243085.613384) vcan0 118#610B851820800000
(1597243085.615406) vcan0 257#4FB6675E7A010000
(1597243085.621927) vcan0 266#EA07111A11005F01
(1597243085.623382) vcan0 118#620C851820800000
(1597243085.633042) vcan0 266#EB07111910005F01
(1597243085.633432) vcan0 118#630D851820800000
(1597243085.635323) vcan0 257#50B7675E7A010000
(1597243085.642138) vcan0 266#E907111810005F01
(1597243085.643619) vcan0 118#640E851820800000
(1597243085.651915) vcan0 266#E407121911005F01
(1597243085.653363) vcan0 118#650F851820800000
(1597243085.654627) vcan0 257#41A8675E7A010000
(1597243085.661705) vcan0 266#E907111811005F01
(1597243085.662956) vcan0 118#5600851820800000
(1597243085.671933) vcan0 266#E807111711005F01
(1597243085.673299) vcan0 118#5701851820800000
(1597243085.674642) vcan0 257#42A9675E7A010000
(1597243085.682935) vcan0 266#EA07111911005F01
(1597243085.683249) vcan0 118#5802851820800000
(1597243085.691866) vcan0 266#ED07101810005F01
(1597243085.694537) vcan0 118#5903851820800000
(1597243085.694840) vcan0 257#339A675E7A010000
(1597243085.702020) vcan0 266#EB07111811005F01
(1597243085.703073) vcan0 118#5A04851820800000
(1597243085.712208) vcan0 266#EA07111A10005F01
(1597243085.714465) vcan0 118#5B05851820800000
(1597243085.714772) vcan0 257#349B675E7A010000
(1597243085.724798) vcan0 266#ED07101910006001
(1597243085.726303) vcan0 118#5C06851820800000
(1597243085.735073) vcan0 266#EB07111810006001
(1597243085.737545) vcan0 118#5D07851820800000
(1597243085.743378) vcan0 257#359C675E7A010000
(1597243085.744100) vcan0 266#E907111910006001
(1597243085.747958) vcan0 118#5E08851820800000
(1597243085.754106) vcan0 266#EA07111811006001
(1597243085.756825) vcan0 118#5F09851820800000
(1597243085.759396) vcan0 257#268D675E7A010000
(1597243085.763383) vcan0 266#EA07111711006001
(1597243085.765936) vcan0 118#600A851820800000
(1597243085.774499) vcan0 266#EB07111910006001
(1597243085.777055) vcan0 118#620B851821800000
(1597243085.779922) vcan0 257#278E675E7A010000
(1597243085.788139) vcan0 266#ED07101910006001
(1597243085.788748) vcan0 118#630C851821800000
(1597243085.793957) vcan0 266#ED07111910006001
(1597243085.797729) vcan0 118#640D851821800000
(1597243085.800451) vcan0 257#288F675E7A010000
(1597243085.803633) vcan0 266#ED07111A10006001
(1597243085.806309) vcan0 118#650E851821800000
(1597243085.813750) vcan0 266#ED07111910006001
(1597243085.816531) vcan0 118#670F851822800000
(1597243085.819234) vcan0 257#1980675E7A010000
(1597243085.823052) vcan0 266#ED07111910006101
(1597243085.824417) vcan0 118#5800851822800000
(1597243085.831991) vcan0 266#EB07111A10006101
(1597243085.834628) vcan0 118#5901851822800000
(1597243085.834963) vcan0 257#0A71675E7A010000
(1597243085.842134) vcan0 266#EC07111910006101
(1597243085.843502) vcan0 118#5A02851822800000
(1597243085.852068) vcan0 266#ED07111810006101
(1597243085.853556) vcan0 118#5C03851823800000
(1597243085.855130) vcan0 257#0B72675E7A010000
(1597243085.862058) vcan0 266#EC07111A10006101
(1597243085.863446) vcan0 118#5D04851823800000
(1597243085.872240) vcan0 266#EE07101910006101
(1597243085.874917) vcan0 118#5E05851823800000
(1597243085.875262) vcan0 257#0C73675E7A010000
(1597243085.882985) vcan0 266#F007101910006101
(1597243085.883341) vcan0 118#5F06851823800000
(1597243085.892164) vcan0 266#EF07101910006101
(1597243085.893568) vcan0 118#6007851823800000
(1597243085.895064) vcan0 257#FD64675E7A010000
(1597243085.901799) vcan0 266#EF07101910006101
(1597243085.903201) vcan0 118#6108851823800000
(1597243085.911787) vcan0 266#F107101910006101
(1597243085.913203) vcan0 118#6209851823800000
(1597243085.914597) vcan0 257#E955675D76010000
(1597243085.921752) vcan0 266#F107101A10006101
(1597243085.923166) vcan0 118#630A851823800000
(1597243085.932331) vcan0 266#F207101B0F006101
(1597243085.936400) vcan0 118#640B851823800000
(1597243085.938023) vcan0 257#DA46675D76010000
(1597243085.942300) vcan0 266#F40710190F006101
(1597243085.944537) vcan0 118#650C851823800000
(1597243085.952090) vcan0 266#F207101A0F006101
(1597243085.953695) vcan0 118#660D851823800000
(1597243085.955074) vcan0 257#BB27675D76010000
(1597243085.963059) vcan0 266#F307101B0F006101
(1597243085.963410) vcan0 118#670E851823800000
(1597243085.972267) vcan0 266#F307101A0F006101
(1597243085.973679) vcan0 118#670F851822800000
(1597243085.975212) vcan0 257#AC18675D76010000
(1597243085.981886) vcan0 266#F307101A0F006101
(1597243085.983477) vcan0 118#5800851822800000
(1597243085.993114) vcan0 266#F307101B0F006101
(1597243085.994187) vcan0 118#5901851822800000
(1597243085.995528) vcan0 257#AD19675D76010000
(1597243086.002066) vcan0 266#F507101A0F006101
(1597243086.003366) vcan0 118#5B02851823800000
(1597243086.011798) vcan0 266#F407101A0F006101
(1597243086.014477) vcan0 118#5C03851823800000
(1597243086.014770) vcan0 257#9E0A675D76010000
(1597243086.022079) vcan0 266#F407101B0F006101
(1597243086.024010) vcan0 118#5D04851823800000
(1597243086.032030) vcan0 266#F307101B0F006101
(1597243086.033894) vcan0 118#5E05851823800000
(1597243086.034960) vcan0 257#9F0B675D76010000
(1597243086.041785) vcan0 266#F407101A0F006101
(1597243086.043213) vcan0 118#5F06851823800000
(1597243086.054677) vcan0 266#F507101B0F006101
(1597243086.055788) vcan0 118#6007851823800000
(1597243086.056319) vcan0 257#A00C675D76010000
(1597243086.063124) vcan0 266#F407101B0F006101
(1597243086.063509) vcan0 118#6108851823800000
(1597243086.072810) vcan0 266#F607101A0F006101
(1597243086.073940) vcan0 118#6209851823800000
(1597243086.075815) vcan0 257#B11D675D76010000
(1597243086.081779) vcan0 266#F507101B0F006101
(1597243086.083181) vcan0 118#630A851823800000
(1597243086.091823) vcan0 266#F107101A0F006101
(1597243086.093158) vcan0 118#640B851823800000
(1597243086.094546) vcan0 257#A20E675D76010000
(1597243086.101775) vcan0 266#F007101910006101
(1597243086.103122) vcan0 118#650C851823800000
(1597243086.112119) vcan0 266#EF07101910006101
(1597243086.113475) vcan0 118#660D851823800000
(1597243086.114848) vcan0 257#A30F675D76010000
(1597243086.121730) vcan0 266#F207101B0F006101
(1597243086.123141) vcan0 118#680E851824800000
(1597243086.132441) vcan0 266#F307101A0F006101
(1597243086.135248) vcan0 118#6A0F851825800000
(1597243086.136278) vcan0 257#9400675D76010000
(1597243086.142380) vcan0 266#F407101A0F006101
(1597243086.144511) vcan0 118#5C00851826800000
(1597243086.152000) vcan0 266#F207101A0F006101
(1597243086.153392) vcan0 118#5E01851827800000
(1597243086.155279) vcan0 257#9501675D76010000
(1597243086.161684) vcan0 266#F207101A0F006101
(1597243086.163252) vcan0 118#6002851828800000
(1597243086.174492) vcan0 266#F30710190F006101
(1597243086.175549) vcan0 118#6203851829800000
(1597243086.176570) vcan0 257#85F2665D76010000
(1597243086.181991) vcan0 266#F407101A0F006101
(1597243086.184690) vcan0 118#640485182A800000
(1597243086.191769) vcan0 266#F607101B0F006101
(1597243086.193421) vcan0 118#650585182A800000
(1597243086.195335) vcan0 257#76E3665D76010000
(1597243086.201659) vcan0 266#F9070F1A0F006101
(1597243086.202979) vcan0 118#660685182A800000
(1597243086.211622) vcan0 266#FA070F1B0F006101
(1597243086.214883) vcan0 118#670785182A800000
(1597243086.216028) vcan0 257#77E4665D76010000
(1597243086.222723) vcan0 266#FA070F1B0F006201
(1597243086.223898) vcan0 118#680885182A800000
(1597243086.231909) vcan0 266#FB070F1A0F006201
(1597243086.235043) vcan0 118#690985182A800000
(1597243086.236069) vcan0 257#68D5665D76010000
(1597243086.242621) vcan0 266#FB070F1A0E006201
(1597243086.243665) vcan0 118#6A0A85182A800000
(1597243086.252060) vcan0 266#FC070F1B0E006201
(1597243086.255073) vcan0 118#6B0B85182A800000
(1597243086.256121) vcan0 257#59C6665D76010000
(1597243086.262374) vcan0 266#00000F1B0E006201
(1597243086.263927) vcan0 118#6C0C85182A800000
(1597243086.271795) vcan0 266#FF070F320E006201
(1597243086.274042) vcan0 118#6D0D85182A800000
(1597243086.275143) vcan0 257#5AC7665D76010000
(1597243086.281816) vcan0 266#FE070F1C0E006201
(1597243086.283283) vcan0 118#6E0E85182A800000
(1597243086.293039) vcan0 266#01000F320E006201
(1597243086.294012) vcan0 118#6F0F85182A800000
(1597243086.295082) vcan0 257#4BB8665D76010000
(1597243086.301862) vcan0 266#02000F1C0E006201
(1597243086.302958) vcan0 118#600085182A800000
(1597243086.311604) vcan0 266#01000F320E006201
(1597243086.314022) vcan0 118#610185182A800000
(1597243086.315108) vcan0 257#4CB9665D76010000
(1597243086.321628) vcan0 266#00000F320E006301
(1597243086.322972) vcan0 118#620285182A800000
(1597243086.331729) vcan0 266#03000F1D0E006301
(1597243086.333498) vcan0 118#630385182A800000
(1597243086.334552) vcan0 257#3DAA665D76010000
(1597243086.344779) vcan0 266#01000F1C0E006301
(1597243086.346404) vcan0 118#640485182A800000
(1597243086.352452) vcan0 266#00000F320E006301
(1597243086.354559) vcan0 118#650585182A800000
(1597243086.358344) vcan0 257#3EAB665D76010000
(1597243086.362073) vcan0 266#03000F320E006301
(1597243086.363263) vcan0 118#660685182A800000
(1597243086.374707) vcan0 266#04000F1C0E006301
(1597243086.375048) vcan0 118#670785182A800000
(1597243086.375341) vcan0 257#3FAC665D76010000
(1597243086.382968) vcan0 266#00000F320E006301
(1597243086.383306) vcan0 118#6708851829800000
(1597243086.392216) vcan0 266#01000F1C0E006301
(1597243086.394394) vcan0 118#6809851829800000
(1597243086.395529) vcan0 257#40AD665D76010000
(1597243086.401917) vcan0 266#03000F1C0E006301
(1597243086.403184) vcan0 118#6A0A85182A800000
(1597243086.411786) vcan0 266#02000F320E006301
(1597243086.413201) vcan0 118#6A0B851829800000
(1597243086.414467) vcan0 257#2C9E665C72010000
(1597243086.422435) vcan0 266#02000F320E006301
(1597243086.423433) vcan0 118#6C0C85182A800000
(1597243086.432003) vcan0 266#03000F1C0E006301
(1597243086.434627) vcan0 118#6C0D851829800000
(1597243086.434961) vcan0 257#2D9F665C72010000
(1597243086.441959) vcan0 266#01000F1B0E006301
(1597243086.443248) vcan0 118#6E0E85182A800000
(1597243086.451944) vcan0 266#01000F320E006301
(1597243086.453316) vcan0 118#6F0F85182A800000
(1597243086.454667) vcan0 257#1E90665C72010000
(1597243086.462546) vcan0 266#01000F320E006301
(1597243086.463548) vcan0 118#600085182A800000
(1597243086.472175) vcan0 266#01000F1B0E006301
(1597243086.473546) vcan0 118#610185182A800000
(1597243086.474881) vcan0 257#0F81665C72010000
(1597243086.481932) vcan0 266#01000F320E006301
(1597243086.483294) vcan0 118#620285182A800000
(1597243086.492090) vcan0 266#01000F320E006301
(1597243086.493456) vcan0 118#630385182A800000
(1597243086.494777) vcan0 257#1082665C72010000
(1597243086.501763) vcan0 266#01000F1C0E006301
(1597243086.503079) vcan0 118#640485182A800000
(1597243086.511707) vcan0 266#01000F320E006301
(1597243086.513090) vcan0 118#650585182A800000
(1597243086.514420) vcan0 257#0173665C72010000
(1597243086.521837) vcan0 266#00000F320E006301
(1597243086.523134) vcan0 118#660685182A800000
(1597243086.533283) vcan0 266#02000F1C0E006301
(1597243086.536011) vcan0 118#680785182B800000
(1597243086.538631) vcan0 257#0274665C72010000
(1597243086.545730) vcan0 266#02000F1C0E006301
(1597243086.549393) vcan0 118#6A0885182C800000
(1597243086.557259) vcan0 266#00000F320E006301
(1597243086.558050) vcan0 118#6C0985182D800000
(1597243086.569440) vcan0 257#0375665C72010000
(1597243086.570277) vcan0 266#02000F320E006301
(1597243086.571025) vcan0 118#6E0A85182E800000
(1597243086.577367) vcan0 266#03000F320E006301
(1597243086.579259) vcan0 118#6F0B85182E800000
(1597243086.586190) vcan0 118#710C85182F800000
(1597243086.594890) vcan0 266#05000F320E006301
(1597243086.599705) vcan0 118#720D85182F800000
(1597243086.600435) vcan0 257#F567665C72010000
(1597243086.606605) vcan0 266#06000F320E006301
(1597243086.609503) vcan0 118#730E85182F800000
(1597243086.615670) vcan0 266#07000F320E006301
(1597243086.617573) vcan0 118#750F851830800000
(1597243086.623087) vcan0 257#F668665C72010000
(1597243086.623802) vcan0 266#07000F310F006301
(1597243086.626314) vcan0 118#6600851830800000
(1597243086.632600) vcan0 266#07000F320F006301
(1597243086.633976) vcan0 118#6701851830800000
(1597243086.635396) vcan0 257#F769665C72010000
(1597243086.642043) vcan0 266#08000F320F006301
(1597243086.643284) vcan0 118#6802851830800000
(1597243086.651738) vcan0 266#08000F320F006301
(1597243086.653633) vcan0 118#6903851830800000
(1597243086.654758) vcan0 257#F86A665C72010000
(1597243086.661894) vcan0 266#0A0010310F006301
(1597243086.663347) vcan0 118#6B04851831800000
(1597243086.671769) vcan0 266#0C0010320F006301
(1597243086.674520) vcan0 118#6C05851831800000
(1597243086.674857) vcan0 257#F96B665C72010000
(1597243086.681878) vcan0 266#0B0010310F006301
(1597243086.683360) vcan0 118#6D06851831800000
(1597243086.692426) vcan0 266#0A000F300F006301
(1597243086.693467) vcan0 118#6E07851831800000
(1597243086.694805) vcan0 257#FA6C665C72010000
(1597243086.702036) vcan0 266#0F0010310F006301
(1597243086.703584) vcan0 118#6F08851831800000
(1597243086.711769) vcan0 266#0E0010320F006301
(1597243086.713185) vcan0 118#6F09851830800000
(1597243086.714571) vcan0 257#FB6D665C72010000
(1597243086.721697) vcan0 266#0E0010310F006301
(1597243086.723100) vcan0 118#710A851831800000
(1597243086.732009) vcan0 266#0E0010300F006301
(1597243086.733377) vcan0 118#720B851831800000
(1597243086.734760) vcan0 257#FC6E665C72010000
(1597243086.741816) vcan0 266#110010320F006301
(1597243086.743397) vcan0 118#730C851831800000
(1597243086.752077) vcan0 266#100010310F006301
(1597243086.753493) vcan0 118#740D851831800000
(1597243086.754895) vcan0 257#ED5F665C72010000
(1597243086.762168) vcan0 266#0F0010310F006301
(1597243086.764525) vcan0 118#750E851831800000
(1597243086.773206) vcan0 266#130011320F006301
(1597243086.774136) vcan0 118#750F851830800000
(1597243086.776469) vcan0 257#DE50665C72010000
(1597243086.781857) vcan0 266#1400113210006301
(1597243086.783247) vcan0 118#6700851831800000
(1597243086.792077) vcan0 266#1100103110006301
(1597243086.793105) vcan0 118#6801851831800000
(1597243086.794512) vcan0 257#DF51665C72010000
(1597243086.801635) vcan0 266#1000103110006301
(1597243086.803147) vcan0 118#6902851831800000
(1597243086.811646) vcan0 266#1200103210006301
(1597243086.813821) vcan0 118#6A03851831800000
(1597243086.814934) vcan0 257#E052665C72010000
(1597243086.822417) vcan0 266#1100103210006201
(1597243086.823378) vcan0 118#6B04851831800000
(1597243086.831891) vcan0 266#1000103010006201
(1597243086.833352) vcan0 118#6C05851831800000
(1597243086.834652) vcan0 257#E153665C72010000
(1597243086.841996) vcan0 266#1200103110006201
(1597243086.843378) vcan0 118#6D06851831800000
(1597243086.851556) vcan0 266#1100103110006201
(1597243086.853007) vcan0 118#6E07851831800000
(1597243086.854481) vcan0 257#E254665C72010000
(1597243086.861611) vcan0 266#1200103010006201
(1597243086.863002) vcan0 118#6F08851831800000
(1597243086.871593) vcan0 266#1200102F10006201
(1597243086.873284) vcan0 118#6F09851830800000
(1597243086.874555) vcan0 257#E355665C72010000
(1597243086.881761) vcan0 266#1400103110006201
(1597243086.883104) vcan0 118#700A851830800000
(1597243086.892805) vcan0 266#1300103110006201
(1597243086.893764) vcan0 118#720B851831800000
(1597243086.894805) vcan0 257#E456665C72010000
(1597243086.901757) vcan0 266#1200103110006201
(1597243086.902943) vcan0 118#730C851831800000
(1597243086.911757) vcan0 266#1400103110006201
(1597243086.913147) vcan0 118#730D851830800000
(1597243086.914516) vcan0 257#E557665C72010000
(1597243086.922797) vcan0 266#1500113110006201
(1597243086.923110) vcan0 118#750E851831800000
(1597243086.932347) vcan0 266#1300103010006201
(1597243086.933737) vcan0 118#760F851831800000
(1597243086.934795) vcan0 257#E658665C72010000
(1597243086.941907) vcan0 266#1300103010006201
(1597243086.943095) vcan0 118#6700851831800000
(1597243086.952459) vcan0 266#1600113110006201
(1597243086.953463) vcan0 118#6801851831800000
(1597243086.954911) vcan0 257#E759665C72010000
(1597243086.961910) vcan0 266#1400103010006201
(1597243086.963477) vcan0 118#6902851831800000
(1597243086.972596) vcan0 266#1300103010006201
(1597243086.974545) vcan0 118#6903851830800000
(1597243086.976083) vcan0 257#E85A665C72010000
(1597243086.982042) vcan0 266#1400113010006201
(1597243086.983521) vcan0 118#6A04851830800000
(1597243086.992125) vcan0 266#1300103110006201
(1597243086.993250) vcan0 118#6B05851830800000
(1597243086.994663) vcan0 257#E95B665C72010000
(1597243087.002024) vcan0 266#1300103010006201
(1597243087.003055) vcan0 118#6D06851831800000
(1597243087.011629) vcan0 266#1300103110006201
(1597243087.014231) vcan0 118#6E07851831800000
(1597243087.014550) vcan0 257#EA5C665C72010000
(1597243087.022283) vcan0 266#1400103110006201
(1597243087.023702) vcan0 118#6F08851831800000
(1597243087.031671) vcan0 266#1300103110006201
(1597243087.033192) vcan0 118#7009851831800000
(1597243087.034453) vcan0 257#EB5D665C72010000
(1597243087.041794) vcan0 266#1200103010006201
(1597243087.043248) vcan0 118#710A851831800000
(1597243087.051803) vcan0 266#1300103110006201
(1597243087.054545) vcan0 118#720B851831800000
(1597243087.054862) vcan0 257#EC5E665C72010000
(1597243087.062265) vcan0 266#1300103110006201
(1597243087.063413) vcan0 118#720C851830800000
(1597243087.072540) vcan0 266#1300103010006201
(1597243087.073489) vcan0 118#730D851830800000
(1597243087.074591) vcan0 257#ED5F665C72010000
(1597243087.081621) vcan0 266#1400103110006201
(1597243087.083028) vcan0 118#740E851830800000
(1597243087.091763) vcan0 266#1400103110006201
(1597243087.094353) vcan0 118#750F851830800000
(1597243087.094674) vcan0 257#DE50665C72010000
(1597243087.101991) vcan0 266#1400103010006201
(1597243087.103123) vcan0 118#6700851831800000
(1597243087.113995) vcan0 266#1400103010006201
(1597243087.114319) vcan0 118#6801851831800000
(1597243087.114577) vcan0 257#CF41665C72010000
(1597243087.122207) vcan0 266#1500113110006201
(1597243087.123478) vcan0 118#6902851831800000
(1597243087.131797) vcan0 266#1400103010006201
(1597243087.133537) vcan0 118#6A03851831800000
(1597243087.134630) vcan0 257#D042665C72010000
(1597243087.141747) vcan0 266#1400103010006201
(1597243087.143182) vcan0 118#6B04851831800000
(1597243087.151693) vcan0 266#1400103010006201
(1597243087.152959) vcan0 118#6C05851831800000
(1597243087.154336) vcan0 257#D143665C72010000
(1597243087.161938) vcan0 266#1500103110006201
(1597243087.164590) vcan0 118#6D06851831800000
(1597243087.174676) vcan0 266#1400103110006201
(1597243087.175166) vcan0 118#6E07851831800000
(1597243087.178804) vcan0 257#C234665C72010000
(1597243087.182138) vcan0 266#1400103110006201
(1597243087.184382) vcan0 118#6F08851831800000
(1597243087.192234) vcan0 266#1400103110006201
(1597243087.193613) vcan0 118#7009851831800000
(1597243087.195011) vcan0 257#C335665C72010000
(1597243087.201750) vcan0 266#1400103110006201
(1597243087.203173) vcan0 118#710A851831800000
(1597243087.211792) vcan0 266#1400103110006201
(1597243087.214030) vcan0 118#720B851831800000
(1597243087.215129) vcan0 257#C436665C72010000
(1597243087.221900) vcan0 266#1400103110006201
(1597243087.223446) vcan0 118#740C851832800000
(1597243087.231931) vcan0 266#1500113110006201
(1597243087.233577) vcan0 118#750D851832800000
(1597243087.235080) vcan0 257#C537665C72010000
(1597243087.241823) vcan0 266#1400103010006201
(1597243087.243223) vcan0 118#760E851832800000
(1597243087.251803) vcan0 266#1500113010006201
(1597243087.253244) vcan0 118#770F851832800000
(1597243087.254882) vcan0 257#C638665C72010000
(1597243087.262113) vcan0 266#1500113010006201
(1597243087.263483) vcan0 118#6800851832800000
(1597243087.271768) vcan0 266#1600113010006201
(1597243087.273178) vcan0 118#6901851832800000
(1597243087.274741) vcan0 257#C739665C72010000
(1597243087.281928) vcan0 266#1500113010006201
(1597243087.283357) vcan0 118#6B02851833800000
(1597243087.291744) vcan0 266#1500113010006201
(1597243087.293149) vcan0 118#6D03851834800000
(1597243087.294521) vcan0 257#C83A665C72010000
(1597243087.301768) vcan0 266#1600113010006201
(1597243087.303275) vcan0 118#6F04851835800000
(1597243087.311762) vcan0 266#1600113010006201
(1597243087.313240) vcan0 118#7105851836800000
(1597243087.314632) vcan0 257#C93B665C72010000
(1597243087.321739) vcan0 266#1600113010006201
(1597243087.323141) vcan0 118#7306851837800000
(1597243087.332004) vcan0 266#1700113010006201
(1597243087.333539) vcan0 118#7407851837800000
(1597243087.335075) vcan0 257#CA3C665C72010000
(1597243087.343888) vcan0 266#1800113011006201
(1597243087.346503) vcan0 118#7608851838800000
(1597243087.353499) vcan0 266#1700113011006201
(1597243087.356261) vcan0 118#7809851839800000
(1597243087.358826) vcan0 257#DB4D665C72010000
(1597243087.363773) vcan0 266#1700112F11006201
(1597243087.366962) vcan0 118#790A851839800000
(1597243087.374296) vcan0 266#1900112F11006201
(1597243087.379739) vcan0 118#7B0B85183A800000
(1597243087.380429) vcan0 257#DC4E665C72010000
(1597243087.385021) vcan0 266#1B00113011006201
(1597243087.387424) vcan0 118#7D0C85183B800000
(1597243087.395785) vcan0 266#1800112E11006201
(1597243087.397170) vcan0 118#7E0D85183B800000
(1597243087.400426) vcan0 257#DD4F665C72010000
(1597243087.403898) vcan0 266#1A00112E11006201
(1597243087.407737) vcan0 118#800E85183C800000
(1597243087.414035) vcan0 266#1F00122E12006201
(1597243087.416861) vcan0 118#820F85183D800000
(1597243087.420246) vcan0 257#CE40665C72010000
(1597243087.424194) vcan0 266#2000122E12006101
(1597243087.426423) vcan0 118#740085183E800000
(1597243087.433785) vcan0 266#1D00112B12006101
(1597243087.436581) vcan0 118#750185183E800000
(1597243087.437991) vcan0 257#CF41665C72010000
(1597243087.442242) vcan0 266#2300132E12006101
(1597243087.443563) vcan0 118#770285183F800000
(1597243087.451798) vcan0 266#2800132E13006101
(1597243087.453255) vcan0 118#7903851840800000
(1597243087.454660) vcan0 257#D042665C72010000
(1597243087.462194) vcan0 266#2600132C13006101
(1597243087.463578) vcan0 118#7B04851841800000
(1597243087.471689) vcan0 266#2800132B13006101
(1597243087.473159) vcan0 118#7C05851841800000
(1597243087.474572) vcan0 257#D143665C72010000
(1597243087.481906) vcan0 266#2D00152D13006101
(1597243087.483293) vcan0 118#7D06851841800000
(1597243087.492725) vcan0 266#2D00142914006101
(1597243087.494757) vcan0 118#7F07851842800000
(1597243087.495093) vcan0 257#D244665C72010000
(1597243087.501797) vcan0 266#2D00142B14006101
(1597243087.503370) vcan0 118#8008851842800000
(1597243087.511768) vcan0 266#3300162D14006101
(1597243087.514492) vcan0 118#8109851842800000
(1597243087.514809) vcan0 257#E355665C72010000
(1597243087.521856) vcan0 266#3500152C15006001
(1597243087.523371) vcan0 118#820A851842800000
(1597243087.532029) vcan0 266#3400152915006001
(1597243087.533424) vcan0 118#830B851842800000
(1597243087.534839) vcan0 257#E456665C72010000
(1597243087.542210) vcan0 266#3500162A15006001
(1597243087.543666) vcan0 118#830C851841800000
(1597243087.551772) vcan0 266#3900172D15006001
(1597243087.554538) vcan0 118#850D851842800000
(1597243087.554859) vcan0 257#E557665C72010000
(1597243087.562215) vcan0 266#3800162A16006001
(1597243087.563660) vcan0 118#860E851842800000
(1597243087.573728) vcan0 266#3800162A16006001
(1597243087.574207) vcan0 118#860F851841800000
(1597243087.575861) vcan0 257#E658665C72010000
(1597243087.582701) vcan0 266#3E00182C16006001
(1597243087.584288) vcan0 118#7800851842800000
(1597243087.592261) vcan0 266#3B00162A16006001
(1597243087.593754) vcan0 118#7901851842800000
(1597243087.596806) vcan0 257#F769665C72010000
(1597243087.601795) vcan0 266#3A00172916006001
(1597243087.603174) vcan0 118#7A02851842800000
(1597243087.611642) vcan0 266#4100192B17006001
(1597243087.614407) vcan0 118#7B03851842800000
(1597243087.614732) vcan0 257#F86A665C72010000
(1597243087.621968) vcan0 266#4300182A17005C01
(1597243087.623366) vcan0 118#7C04851842800000
(1597243087.631459) vcan0 266#3E00172A17005C01
(1597243087.632895) vcan0 118#7D05851842800000
(1597243087.634295) vcan0 257#F96B665C72010000
(1597243087.641690) vcan0 266#4200192A17005C01
(1597243087.643117) vcan0 118#7E06851842800000
(1597243087.651599) vcan0 266#4400192B17005C01
(1597243087.653580) vcan0 118#7F07851842800000
(1597243087.655010) vcan0 257#0A7C665C72010000
(1597243087.661759) vcan0 266#4100182918005C01
(1597243087.663199) vcan0 118#8008851842800000
(1597243087.671451) vcan0 266#4100182818005C01
(1597243087.672896) vcan0 118#8009851841800000
(1597243087.674303) vcan0 257#0B7D665C72010000
(1597243087.682086) vcan0 266#45001A2B18005C01
(1597243087.683360) vcan0 118#820A851842800000
(1597243087.691392) vcan0 266#4300182918005C01
(1597243087.692832) vcan0 118#830B851842800000
(1597243087.694341) vcan0 257#0C7E665C72010000
(1597243087.701642) vcan0 266#4200182718005C01
(1597243087.703082) vcan0 118#840C851842800000
(1597243087.711499) vcan0 266#47001A2B18005C01
(1597243087.713143) vcan0 118#840D851841800000
(1597243087.714537) vcan0 257#1D8F665C72010000
(1597243087.721604) vcan0 266#4700192A18005901
(1597243087.723018) vcan0 118#860E851842800000
(1597243087.731945) vcan0 266#4500182718005901
(1597243087.733412) vcan0 118#860F851841800000
(1597243087.734852) vcan0 257#0E80665C72010000
(1597243087.741736) vcan0 266#48001A2919005901
(1597243087.743166) vcan0 118#7800851842800000
(1597243087.751795) vcan0 266#49001A2A19005901
(1597243087.753326) vcan0 118#7901851842800000
(1597243087.754752) vcan0 257#0F81665C72010000
(1597243087.762801) vcan0 266#4600182819005901
(1597243087.763135) vcan0 118#7A02851842800000
(1597243087.771535) vcan0 266#4500192719005901
(1597243087.776016) vcan0 118#7B03851842800000
(1597243087.777472) vcan0 257#2092665C72010000
(1597243087.782164) vcan0 266#48001A2A19005901
(1597243087.783590) vcan0 118#7C04851842800000
(1597243087.792243) vcan0 266#4600182819005901
(1597243087.795200) vcan0 118#7D05851842800000
(1597243087.795601) vcan0 257#2193665C72010000
(1597243087.801793) vcan0 266#4500192719005901
(1597243087.803169) vcan0 118#7E06851842800000
(1597243087.811697) vcan0 266#4800192A19005901
(1597243087.813373) vcan0 118#7F07851842800000
(1597243087.814766) vcan0 257#32A4665C72010000
(1597243087.822232) vcan0 266#4700192919005801
(1597243087.823507) vcan0 118#8108851843800000
(1597243087.832215) vcan0 266#4400182619005801
(1597243087.833563) vcan0 118#8209851843800000
(1597243087.834894) vcan0 257#33A5665C72010000
(1597243087.841706) vcan0 266#4700192919005801
(1597243087.843133) vcan0 118#840A851844800000
(1597243087.851626) vcan0 266#4700192919005801
(1597243087.853059) vcan0 118#860B851845800000
(1597243087.854586) vcan0 257#34A6665C72010000
(1597243087.861654) vcan0 266#4400182719005801
(1597243087.863171) vcan0 118#880C851846800000
(1597243087.871548) vcan0 266#4600192919005801
(1597243087.873913) vcan0 118#8B0D851848800000
(1597243087.875264) vcan0 257#45B7665C72010000
(1597243087.881688) vcan0 266#4800192A19005801
(1597243087.883140) vcan0 118#8D0E851849800000
(1597243087.891418) vcan0 266#4600192819005801
(1597243087.892894) vcan0 118#8F0F85184A800000
(1597243087.894302) vcan0 257#56C8665C72010000
(1597243087.901695) vcan0 266#49001A2919005801
(1597243087.903074) vcan0 118#800085184A800000
(1597243087.911453) vcan0 266#4D001A2A1A005801
(1597243087.913525) vcan0 118#810185184A800000
(1597243087.914917) vcan0 257#57C9665C72010000
(1597243087.921636) vcan0 266#4D001A281A005701
(1597243087.923109) vcan0 118#820285184A800000
(1597243087.931694) vcan0 266#4F001B281A005701
(1597243087.933599) vcan0 118#830385184A800000
(1597243087.934973) vcan0 257#58CA665C72010000
(1597243087.941967) vcan0 266#55001C291B005701
(1597243087.943254) vcan0 118#840485184A800000
(1597243087.951579) vcan0 266#52001B281B005701
(1597243087.953673) vcan0 118#850585184A800000
(1597243087.955082) vcan0 257#69DB665C72010000
(1597243087.961948) vcan0 266#52001B271B005701
(1597243087.963470) vcan0 118#860685184A800000
(1597243087.971481) vcan0 266#53001B281B005701
(1597243087.972916) vcan0 118#870785184A800000
(1597243087.974340) vcan0 257#7AEC665C72010000
(1597243087.983464) vcan0 266#4F001A261C005701
(1597243087.983875) vcan0 118#880885184A800000
(1597243087.992084) vcan0 266#52001C271C005701
(1597243087.994150) vcan0 118#890985184A800000
(1597243087.997141) vcan0 257#7BED665C72010000
(1597243088.002037) vcan0 266#55001C291C005701
(1597243088.004719) vcan0 118#8A0A85184A800000
(1597243088.011534) vcan0 266#56001C281C005701
(1597243088.012937) vcan0 118#8B0B85184A800000
(1597243088.014346) vcan0 257#8CFE665C72010000
(1597243088.021370) vcan0 266#59001D281D005401
(1597243088.022844) vcan0 118#8C0C85184A800000
(1597243088.031938) vcan0 266#5E001F2A1D005401
(1597243088.034637) vcan0 118#8D0D85184A800000
(1597243088.034945) vcan0 257#8DFF665C72010000
(1597243088.041736) vcan0 266#5C001D271D005401
(1597243088.043179) vcan0 118#8D0E851849800000
(1597243088.051572) vcan0 266#5C001D271D005401
(1597243088.053014) vcan0 118#8E0F851849800000
(1597243088.054484) vcan0 257#8F00675C72010000
(1597243088.061359) vcan0 266#5B001D271D005401
(1597243088.062803) vcan0 118#7F00851849800000
(1597243088.072433) vcan0 266#57001C261D005401
(1597243088.074303) vcan0 118#8001851849800000
(1597243088.074645) vcan0 257#A511675D76010000
(1597243088.081507) vcan0 266#5A001E281D005401
(1597243088.083067) vcan0 118#8102851849800000
(1597243088.091483) vcan0 266#5E001E291E005401
(1597243088.094252) vcan0 118#8203851849800000
(1597243088.094576) vcan0 257#A612675D76010000
(1597243088.103344) vcan0 266#5F001E281E005401
(1597243088.103667) vcan0 118#8304851849800000
(1597243088.112742) vcan0 266#61001F291E005401
(1597243088.114961) vcan0 118#8405851849800000
(1597243088.117591) vcan0 257#B723675D76010000
(1597243088.121732) vcan0 266#63001F291E005101
(1597243088.123152) vcan0 118#8506851849800000
(1597243088.132106) vcan0 266#5D001D261E005101
(1597243088.133332) vcan0 118#8607851849800000
(1597243088.134730) vcan0 257#C834675D76010000
(1597243088.142099) vcan0 266#5E001E271E005101
(1597243088.145168) vcan0 118#8708851849800000
(1597243088.153221) vcan0 266#5E001E291E005101
(1597243088.156630) vcan0 118#8809851849800000
(1597243088.159068) vcan0 257#D945675D76010000
(1597243088.163116) vcan0 266#5C001D271E005101
(1597243088.165810) vcan0 118#880A851848800000
(1597243088.173290) vcan0 266#62001F291E005101
(1597243088.176068) vcan0 118#890B851848800000
(1597243088.178725) vcan0 257#EA56675D76010000
(1597243088.184199) vcan0 266#63001F291F005101
(1597243088.186926) vcan0 118#8A0C851848800000
(1597243088.193345) vcan0 266#5F001E261E005101
(1597243088.196243) vcan0 118#8A0D851847800000
(1597243088.200598) vcan0 257#EB57675D76010000
(1597243088.203369) vcan0 266#60001E281E005101
(1597243088.207301) vcan0 118#8A0E851846800000
(1597243088.215214) vcan0 266#5E001D271E005101
(1597243088.217277) vcan0 118#8B0F851846800000
(1597243088.220324) vcan0 257#FC68675D76010000
(1597243088.225317) vcan0 266#5B001D271E004F01
(1597243088.227173) vcan0 118#7B00851845800000
(1597243088.233579) vcan0 266#61001F291E004F01
(1597243088.236916) vcan0 118#7C01851845800000
(1597243088.239586) vcan0 257#0D79675D76010000
(1597243088.243161) vcan0 266#5F001E271E004F01
(1597243088.244577) vcan0 118#7D02851845800000
(1597243088.251620) vcan0 266#5E001E271E004F01
(1597243088.253403) vcan0 118#7E03851845800000
(1597243088.254512) vcan0 257#0E7A675D76010000
(1597243088.261626) vcan0 266#5E001E281E004F01
(1597243088.263004) vcan0 118#7F04851845800000
(1597243088.271535) vcan0 266#5D001D271E004F01
(1597243088.272963) vcan0 118#7F05851844800000
(1597243088.274401) vcan0 257#1F8B675D76010000
(1597243088.281395) vcan0 266#5C001E271E004F01
(1597243088.283038) vcan0 118#8006851844800000
(1597243088.291855) vcan0 266#5C001E271D004F01
(1597243088.293509) vcan0 118#8107851844800000
(1597243088.294627) vcan0 257#309C675D76010000
(1597243088.301407) vcan0 266#5B001D271D004F01
(1597243088.302842) vcan0 118#8208851844800000
(1597243088.311550) vcan0 266#5B001D271D004F01
(1597243088.312863) vcan0 118#8309851844800000
(1597243088.314251) vcan0 257#319D675D76010000
(1597243088.321933) vcan0 266#5A001D271D004E01
(1597243088.322957) vcan0 118#840A851844800000
(1597243088.332726) vcan0 266#59001D271D004E01
(1597243088.333085) vcan0 118#850B851844800000
(1597243088.334665) vcan0 257#42AE675D76010000
(1597243088.342240) vcan0 266#5B001D271D004E01
(1597243088.343586) vcan0 118#860C851844800000
(1597243088.351609) vcan0 266#59001C271D004E01
(1597243088.353013) vcan0 118#870D851844800000
(1597243088.354520) vcan0 257#43AF675D76010000
(1597243088.361888) vcan0 266#57001C261D004E01
(1597243088.362875) vcan0 118#880E851844800000
(1597243088.371532) vcan0 266#57001D271D004E01
(1597243088.374037) vcan0 118#890F851844800000
(1597243088.374558) vcan0 257#44B0675D76010000
(1597243088.381419) vcan0 266#57001C261C004E01
(1597243088.382982) vcan0 118#7A00851844800000
(1597243088.391761) vcan0 266#56001C261C004E01
(1597243088.393491) vcan0 118#7A01851843800000
(1597243088.396457) vcan0 257#55C1675D76010000
(1597243088.401978) vcan0 266#57001D271C004E01
(1597243088.404634) vcan0 118#7B02851843800000
(1597243088.411864) vcan0 266#54001C261C004E01
(1597243088.413832) vcan0 118#7B03851842800000
(1597243088.415728) vcan0 257#56C2675D76010000
(1597243088.422302) vcan0 266#54001C261C004E01
(1597243088.423617) vcan0 118#7C04851842800000
(1597243088.431672) vcan0 266#56001C271C004E01
(1597243088.433642) vcan0 118#7D05851842800000
(1597243088.435528) vcan0 257#67D3675D76010000
(1597243088.442026) vcan0 266#54001C251C004E01
(1597243088.443989) vcan0 118#7D06851841800000
(1597243088.452157) vcan0 266#54001C261C004E01
(1597243088.454260) vcan0 118#7E07851841800000
(1597243088.455666) vcan0 257#7DE4675E7A010000
(1597243088.461941) vcan0 266#52001B261C004E01
(1597243088.463278) vcan0 118#7F08851841800000
(1597243088.471615) vcan0 266#51001B261B004E01
(1597243088.473553) vcan0 118#8009851841800000
(1597243088.475249) vcan0 257#7EE5675E7A010000
(1597243088.482033) vcan0 266#55001C271B004E01
(1597243088.483487) vcan0 118#810A851841800000
(1597243088.492130) vcan0 266#51001B261B004E01
(1597243088.494565) vcan0 118#810B851840800000
(1597243088.494880) vcan0 257#8FF6675E7A010000
(1597243088.501550) vcan0 266#4F001B251B004E01
(1597243088.503391) vcan0 118#820C851840800000
(1597243088.511466) vcan0 266#51001B271B004E01
(1597243088.513318) vcan0 118#830D851840800000
(1597243088.515073) vcan0 257#A107685E7A010000
(1597243088.521457) vcan0 266#4F001B251B004D01
(1597243088.523253) vcan0 118#840E851840800000
(1597243088.531574) vcan0 266#50001B261B004D01
(1597243088.533386) vcan0 118#850F851840800000
(1597243088.535573) vcan0 257#A208685E7A010000
(1597243088.543184) vcan0 266#4A001A261A004D01
(1597243088.544175) vcan0 118#7600851840800000
(1597243088.551544) vcan0 266#4C001A251A004D01
(1597243088.554663) vcan0 118#760185183F800000
(1597243088.555777) vcan0 257#B319685E7A010000
(1597243088.561936) vcan0 266#50001B271A004D01
(1597243088.563304) vcan0 118#770285183F800000
(1597243088.572764) vcan0 266#4A001A251A004D01
(1597243088.574363) vcan0 118#780385183F800000
(1597243088.574742) vcan0 257#C42A685E7A010000
(1597243088.582281) vcan0 266#49001A261A004D01
(1597243088.583875) vcan0 118#790485183F800000
(1597243088.591971) vcan0 266#4C001A271A004D01
(1597243088.595079) vcan0 118#7A0585183F800000
(1597243088.598509) vcan0 257#C52B685E7A010000
(1597243088.602784) vcan0 266#4700192419004D01
(1597243088.603205) vcan0 118#7B0685183F800000
(1597243088.611755) vcan0 266#4700192619004D01
(1597243088.613291) vcan0 118#7C0785183F800000
(1597243088.615057) vcan0 257#D63C685E7A010000
(1597243088.621516) vcan0 266#4700192619004D01
(1597243088.622833) vcan0 118#7D0885183F800000
(1597243088.631541) vcan0 266#4700192519004D01
(1597243088.632895) vcan0 118#7E0985183F800000
(1597243088.634233) vcan0 257#E74D685E7A010000
(1597243088.641970) vcan0 266#4600192519004D01
(1597243088.643329) vcan0 118#7F0A85183F800000
(1597243088.651818) vcan0 266#4100182419004D01
(1597243088.652922) vcan0 118#800B85183F800000
(1597243088.654263) vcan0 257#E84E685E7A010000
(1597243088.661499) vcan0 266#47001A2619004D01
(1597243088.662911) vcan0 118#810C85183F800000
(1597243088.671583) vcan0 266#4600192519004D01
(1597243088.672970) vcan0 118#820D85183F800000
(1597243088.674304) vcan0 257#F95F685E7A010000
(1597243088.681485) vcan0 266#4000182318004D01
(1597243088.682846) vcan0 118#830E85183F800000
(1597243088.691356) vcan0 266#4300192718004D01
(1597243088.693466) vcan0 118#840F85183F800000
(1597243088.694714) vcan0 257#EA50685E7A010000
(1597243088.701397) vcan0 266#4400192519004D01
(1597243088.702768) vcan0 118#750085183F800000
(1597243088.711369) vcan0 266#4300192418004D01
(1597243088.712767) vcan0 118#760185183F800000
(1597243088.714140) vcan0 257#FB61685E7A010000
(1597243088.721348) vcan0 266#4300182618004D01
(1597243088.722697) vcan0 118#770285183F800000
(1597243088.731531) vcan0 266#4300182518004D01
(1597243088.733401) vcan0 118#780385183F800000
(1597243088.734564) vcan0 257#0C72685E7A010000
(1597243088.741762) vcan0 266#4600192619004D01
(1597243088.743331) vcan0 118#790485183F800000
(1597243088.751355) vcan0 266#4000182418004D01
(1597243088.752896) vcan0 118#7B05851840800000
(1597243088.754227) vcan0 257#0D73685E7A010000
(1597243088.761659) vcan0 266#4100182518004D01
(1597243088.762823) vcan0 118#7C06851840800000
(1597243088.771520) vcan0 266#4200182518004D01
(1597243088.772867) vcan0 118#7D07851840800000
(1597243088.774307) vcan0 257#1E84685E7A010000
(1597243088.781959) vcan0 266#3B00172318004D01
(1597243088.783033) vcan0 118#7D0885183F800000
(1597243088.792179) vcan0 266#4400192618004D01
(1597243088.794342) vcan0 118#7E0985183F800000
(1597243088.797055) vcan0 257#1F85685E7A010000
(1597243088.801650) vcan0 266#4200182518004D01
(1597243088.803596) vcan0 118#7F0A85183F800000
(1597243088.812130) vcan0 266#4000182418004D01
(1597243088.815439) vcan0 118#800B85183F800000
(1597243088.816576) vcan0 257#3096685E7A010000
(1597243088.821385) vcan0 266#4200182618004D01
(1597243088.823025) vcan0 118#810C85183F800000
(1597243088.831536) vcan0 266#4000182418004D01
(1597243088.833651) vcan0 118#820D85183F800000
(1597243088.834763) vcan0 257#3697685F7E010000
(1597243088.841895) vcan0 266#4000182518004D01
(1597243088.843371) vcan0 118#830E85183F800000
(1597243088.851913) vcan0 266#4000182518004D01
(1597243088.852965) vcan0 118#840F85183F800000
(1597243088.854559) vcan0 257#47A8685F7E010000
(1597243088.861486) vcan0 266#4100182418004D01
(1597243088.862907) vcan0 118#750085183F800000
(1597243088.871796) vcan0 266#4000182518004D01
(1597243088.873681) vcan0 118#760185183F800000
(1597243088.874770) vcan0 257#48A9685F7E010000
(1597243088.881344) vcan0 266#3F00182418004D01
(1597243088.882834) vcan0 118#770285183F800000
(1597243088.891481) vcan0 266#4300192518004D01
(1597243088.892888) vcan0 118#770385183E800000
(1597243088.894322) vcan0 257#59BA685F7E010000
(1597243088.901387) vcan0 266#4000182418004D01
(1597243088.902917) vcan0 118#780485183E800000
(1597243088.911382) vcan0 266#3F00182518004D01
(1597243088.912827) vcan0 118#780585183D800000
(1597243088.914249) vcan0 257#5ABB685F7E010000
(1597243088.921370) vcan0 266#4100182518004C01
(1597243088.922847) vcan0 118#7A0685183E800000
(1597243088.931615) vcan0 266#3C00172417004C01
(1597243088.932910) vcan0 118#7B0785183E800000
(1597243088.934298) vcan0 257#6BCC685F7E010000
(1597243088.942063) vcan0 266#4200192618004C01
(1597243088.943740) vcan0 118#7B0885183D800000
(1597243088.952593) vcan0 266#3F00172418004C01
(1597243088.955435) vcan0 118#7D0985183E800000
(1597243088.958235) vcan0 257#6CCD685F7E010000
(1597243088.963206) vcan0 266#3E00182517004C01
(1597243088.965833) vcan0 118#7D0A85183D800000
(1597243088.973094) vcan0 266#4100182518004C01
(1597243088.975918) vcan0 118#7E0B85183D800000
(1597243088.978566) vcan0 257#7DDE685F7E010000
(1597243088.983113) vcan0 266#3D00172318004C01
(1597243088.986026) vcan0 118#7F0C85183D800000
(1597243088.992989) vcan0 266#4000182518004C01
(1597243089.003645) vcan0 118#800D85183D800000
(1597243089.006065) vcan0 257#7EDF685F7E010000
(1597243089.007982) vcan0 266#3E00172417004C01
(1597243089.013173) vcan0 118#810E85183D800000
(1597243089.018139) vcan0 266#3D00172417004C01
(1597243089.022301) vcan0 118#820F85183D800000
(1597243089.026560) vcan0 257#7FE0685F7E010000
(1597243089.028306) vcan0 266#3D00172517004B01
(1597243089.032714) vcan0 118#730085183D800000
(1597243089.034958) vcan0 266#3D00172417004B01
(1597243089.038784) vcan0 118#740185183D800000
(1597243089.040934) vcan0 257#80E1685F7E010000
(1597243089.044218) vcan0 266#3C00172417004B01
(1597243089.047034) vcan0 118#750285183D800000
(1597243089.052510) vcan0 266#3C00172417004B01
(1597243089.053894) vcan0 118#760385183D800000
(1597243089.055315) vcan0 257#81E2685F7E010000
(1597243089.061450) vcan0 266#3D00182517004B01
(1597243089.062882) vcan0 118#770485183D800000
(1597243089.071763) vcan0 266#3C00172417004B01
(1597243089.073139) vcan0 118#780585183D800000
(1597243089.074550) vcan0 257#92F3685F7E010000
(1597243089.081532) vcan0 266#3B00172417004B01
(1597243089.082931) vcan0 118#790685183D800000
(1597243089.091532) vcan0 266#3B00172417004B01
(1597243089.092943) vcan0 118#7A0785183D800000
(1597243089.094349) vcan0 257#93F4685F7E010000
(1597243089.101548) vcan0 266#3B00172417004B01
(1597243089.102959) vcan0 118#7B0885183D800000
(1597243089.111558) vcan0 266#3D00172517004B01
(1597243089.113156) vcan0 118#7C0985183D800000
(1597243089.114564) vcan0 257#94F5685F7E010000
(1597243089.121455) vcan0 266#3900172417004B01
(1597243089.122900) vcan0 118#7D0A85183D800000
(1597243089.131632) vcan0 266#3C00172417004B01
(1597243089.133014) vcan0 118#7E0B85183D800000
(1597243089.134422) vcan0 257#A606695F7E010000
(1597243089.141999) vcan0 266#3A00172417004B01
(1597243089.143465) vcan0 118#7F0C85183D800000
(1597243089.151489) vcan0 266#3A00172417004B01
(1597243089.152910) vcan0 118#800D85183D800000
(1597243089.154312) vcan0 257#A707695F7E010000
(1597243089.161449) vcan0 266#3A00172417004B01
(1597243089.162881) vcan0 118#810E85183D800000
(1597243089.171910) vcan0 266#3700162316004B01
(1597243089.173261) vcan0 118#820F85183D800000
(1597243089.174730) vcan0 257#B818695F7E010000
(1597243089.181547) vcan0 266#3B00172517004B01
(1597243089.182941) vcan0 118#730085183D800000
(1597243089.191505) vcan0 266#3900162417004B01
(1597243089.192939) vcan0 118#740185183D800000
(1597243089.194474) vcan0 257#B919695F7E010000
(1597243089.201935) vcan0 266#3900172416004B01
(1597243089.203599) vcan0 118#750285183D800000
(1597243089.211924) vcan0 266#3A00172417004B01
(1597243089.213617) vcan0 118#760385183D800000
(1597243089.215329) vcan0 257#CA2A695F7E010000
(1597243089.221757) vcan0 266#3600162416004B01
(1597243089.223977) vcan0 118#770485183D800000
(1597243089.231795) vcan0 266#3B00172416004B01
(1597243089.233196) vcan0 118#780585183D800000
(1597243089.234607) vcan0 257#CB2B695F7E010000
(1597243089.241495) vcan0 266#3600162416004B01
(1597243089.242908) vcan0 118#790685183D800000
(1597243089.251619) vcan0 266#3800172416004B01
(1597243089.253215) vcan0 118#7A0785183D800000
(1597243089.254624) vcan0 257#DC3C695F7E010000
(1597243089.261500) vcan0 266#3900162316004B01
(1597243089.262902) vcan0 118#7B0885183D800000
(1597243089.271645) vcan0 266#3800162416004B01
(1597243089.273051) vcan0 118#7C0985183D800000
(1597243089.274640) vcan0 257#DD3D695F7E010000
(1597243089.281534) vcan0 266#3900172416004B01
(1597243089.283413) vcan0 118#7D0A85183D800000
(1597243089.291768) vcan0 266#3600162316004B01
(1597243089.293681) vcan0 118#7E0B85183D800000
(1597243089.295097) vcan0 257#EE4E695F7E010000
(1597243089.301689) vcan0 266#3A00172416004B01
(1597243089.303100) vcan0 118#7F0C85183D800000
(1597243089.311824) vcan0 266#3600162316004B01
(1597243089.314786) vcan0 118#800D85183D800000
(1597243089.315132) vcan0 257#EF4F695F7E010000
(1597243089.321552) vcan0 266#3900172416004A01
(1597243089.322812) vcan0 118#810E85183D800000
(1597243089.331717) vcan0 266#3800162316004A01
(1597243089.333778) vcan0 118#820F85183D800000
(1597243089.334964) vcan0 257#E040695F7E010000
(1597243089.342239) vcan0 266#3700162416004A01
(1597243089.343252) vcan0 118#730085183D800000
(1597243089.351394) vcan0 266#3800162416004A01
(1597243089.352769) vcan0 118#740185183D800000
(1597243089.354534) vcan0 257#F151695F7E010000
(1597243089.361357) vcan0 266#3600162316004A01
(1597243089.363158) vcan0 118#750285183D800000
(1597243089.373715) vcan0 266#3900172416004A01
(1597243089.374409) vcan0 118#760385183D800000
(1597243089.374730) vcan0 257#F252695F7E010000
(1597243089.382341) vcan0 266#3600162316004A01
(1597243089.383022) vcan0 118#770485183D800000
(1597243089.391689) vcan0 266#3900172416004A01
(1597243089.392962) vcan0 118#780585183D800000
(1597243089.394279) vcan0 257#0863696082010000
(1597243089.401814) vcan0 266#3800162416004A01
(1597243089.404791) vcan0 118#790685183D800000
(1597243089.413288) vcan0 266#3700162416004A01
(1597243089.415964) vcan0 118#7A0785183D800000
(1597243089.417591) vcan0 257#0964696082010000
(1597243089.422413) vcan0 266#3800162316004901
(1597243089.423473) vcan0 118#7A0885183C800000
(1597243089.432323) vcan0 266#3700162316004901
(1597243089.434751) vcan0 118#7B0985183C800000
(1597243089.435114) vcan0 257#1A75696082010000
(1597243089.441826) vcan0 266#3800162316004901
(1597243089.443075) vcan0 118#7C0A85183C800000
(1597243089.453504) vcan0 266#3700162416004901
(1597243089.453899) vcan0 118#7D0B85183C800000
(1597243089.455500) vcan0 257#1B76696082010000
(1597243089.461563) vcan0 266#3800162416004901
(1597243089.463082) vcan0 118#7E0C85183C800000
(1597243089.471488) vcan0 266#3700162416004901
(1597243089.473266) vcan0 118#7F0D85183C800000
(1597243089.474360) vcan0 257#2C87696082010000
(1597243089.482733) vcan0 266#3800162416004901
(1597243089.483739) vcan0 118#800E85183C800000
(1597243089.491559) vcan0 266#3600162416004901
(1597243089.493172) vcan0 118#800F85183B800000
(1597243089.494282) vcan0 257#2D88696082010000
(1597243089.501420) vcan0 266#3700162316004901
(1597243089.502929) vcan0 118#700085183A800000
(1597243089.511509) vcan0 266#3700162416004901
(1597243089.513005) vcan0 118#7001851839800000
(1597243089.514369) vcan0 257#3E99696082010000
(1597243089.521524) vcan0 266#3600162416004801
(1597243089.523031) vcan0 118#7102851839800000
(1597243089.531781) vcan0 266#3600162316004801
(1597243089.533498) vcan0 118#7203851839800000
(1597243089.534592) vcan0 257#3F9A696082010000
(1597243089.541521) vcan0 266#3500162316004801
(1597243089.542817) vcan0 118#7304851839800000
(1597243089.551503) vcan0 266#3500162416004801
(1597243089.552875) vcan0 118#7305851838800000
(1597243089.554140) vcan0 257#50AB696082010000
(1597243089.561431) vcan0 266#3500162416004801
(1597243089.562748) vcan0 118#7406851838800000
(1597243089.571489) vcan0 266#3400162316004801
(1597243089.573514) vcan0 118#7507851838800000
(1597243089.574608) vcan0 257#51AC696082010000
(1597243089.581445) vcan0 266#3400162416004801
(1597243089.582905) vcan0 118#7508851837800000
(1597243089.591496) vcan0 266#3300152316004801
(1597243089.593258) vcan0 118#7409851835800000
(1597243089.594823) vcan0 257#52AD696082010000
(1597243089.601457) vcan0 266#3300152515004801
(1597243089.602778) vcan0 118#730A851833800000
(1597243089.611711) vcan0 266#3000152215004801
(1597243089.615324) vcan0 118#730B851832800000
(1597243089.615743) vcan0 257#63BE696082010000
(1597243089.622003) vcan0 266#3200162515004801
(1597243089.623948) vcan0 118#730C851831800000
(1597243089.631505) vcan0 266#2F00152415004801
(1597243089.633170) vcan0 118#740D851831800000
(1597243089.634311) vcan0 257#64BF696082010000
(1597243089.641338) vcan0 266#2E00152415004801
(1597243089.642724) vcan0 118#740E851830800000
(1597243089.651202) vcan0 266#2F00152415004801
(1597243089.653056) vcan0 118#740F85182F800000
(1597243089.654430) vcan0 257#55B0696082010000
(1597243089.661405) vcan0 266#2B00152514004801
(1597243089.662991) vcan0 118#640085182E800000
(1597243089.671299) vcan0 266#2C00142514004801
(1597243089.672698) vcan0 118#640185182D800000
(1597243089.674052) vcan0 257#56B1696082010000
(1597243089.681210) vcan0 266#2A00142314004801
(1597243089.682691) vcan0 118#640285182C800000
(1597243089.691388) vcan0 266#3100162614004801
(1597243089.692916) vcan0 118#640385182B800000
(1597243089.694228) vcan0 257#67C2696082010000
(1597243089.702001) vcan0 266#2500132414004801
(1597243089.703082) vcan0 118#640485182A800000
(1597243089.711361) vcan0 266#2C00152614004801
(1597243089.712753) vcan0 118#6405851829800000
(1597243089.714106) vcan0 257#68C3696082010000
(1597243089.721189) vcan0 266#2000122413004901
(1597243089.722932) vcan0 118#6506851829800000
(1597243089.731302) vcan0 266#2A00152713004901
(1597243089.733366) vcan0 118#6607851829800000
(1597243089.734594) vcan0 257#69C4696082010000
(1597243089.741352) vcan0 266#2300132313004901
(1597243089.742774) vcan0 118#6708851829800000
(1597243089.751304) vcan0 266#2600142513004901
(1597243089.753637) vcan0 118#690985182A800000
(1597243089.755081) vcan0 257#6AC5696082010000
(1597243089.762969) vcan0 266#2200132513004901
(1597243089.765509) vcan0 118#6A0A85182A800000
(1597243089.773158) vcan0 266#2000122412004901
(1597243089.775842) vcan0 118#6B0B85182A800000
(1597243089.778364) vcan0 257#6BC6696082010000
(1597243089.782947) vcan0 266#2100132612004901
(1597243089.785630) vcan0 118#6E0C85182C800000
(1597243089.792842) vcan0 266#1D00122612004901
(1597243089.795536) vcan0 118#710D85182E800000
(1597243089.798128) vcan0 257#6CC7696082010000
(1597243089.803422) vcan0 266#2100132712004901
(1597243089.806123) vcan0 118#750E851831800000
(1597243089.819352) vcan0 266#1D00122612004901
(1597243089.829027) vcan0 266#2000132512004901
(1597243089.833328) vcan0 118#6B00851835800000
(1597243089.836452) vcan0 266#1B00122712004901
(1597243089.840084) vcan0 118#6E01851837800000
(1597243089.843703) vcan0 257#7ED9696082010000
(1597243089.846997) vcan0 266#1C00122312004901
(1597243089.849814) vcan0 118#7002851838800000
(1597243089.858133) vcan0 266#1A00122811004901
(1597243089.858454) vcan0 118#7103851838800000
(1597243089.858686) vcan0 257#7FDA696082010000
(1597243089.861565) vcan0 266#1C00122312004901
(1597243089.863287) vcan0 118#7204851838800000
(1597243089.872241) vcan0 266#1C00122812004901
(1597243089.874893) vcan0 118#7305851838800000
(1597243089.875193) vcan0 257#80DB696082010000
(1597243089.881393) vcan0 266#1A00122412004901
(1597243089.883353) vcan0 118#7406851838800000
(1597243089.891328) vcan0 266#1C00122712004901
(1597243089.894592) vcan0 118#7507851838800000
(1597243089.894897) vcan0 257#81DC696082010000
(1597243089.902803) vcan0 266#1A00122512004901
(1597243089.903814) vcan0 118#7608851838800000
(1597243089.911360) vcan0 266#1C00122612004901
(1597243089.912875) vcan0 118#7709851838800000
(1597243089.915221) vcan0 257#92ED696082010000
(1597243089.921363) vcan0 266#1E00122512004901
(1597243089.922799) vcan0 118#780A851838800000
(1597243089.931312) vcan0 266#1E00122512004901
(1597243089.932915) vcan0 118#790B851838800000
(1597243089.934324) vcan0 257#93EE696082010000
(1597243089.941488) vcan0 266#1F00122512004901
(1597243089.943048) vcan0 118#7A0C851838800000
(1597243089.951209) vcan0 266#2000132512004901
(1597243089.953417) vcan0 118#7B0D851838800000
(1597243089.954773) vcan0 257#94EF696082010000
(1597243089.961308) vcan0 266#2000122512004901
(1597243089.962757) vcan0 118#7C0E851838800000
(1597243089.971307) vcan0 266#2100132513004901
(1597243089.972770) vcan0 118#7D0F851838800000
(1597243089.974222) vcan0 257#95F0696082010000
(1597243089.981436) vcan0 266#2200132513004901
(1597243089.982902) vcan0 118#6E00851838800000
(1597243089.991196) vcan0 266#2200132513004901
(1597243089.992762) vcan0 118#6F01851838800000
(1597243089.994230) vcan0 257#96F1696082010000
(1597243090.001350) vcan0 266#2300132513004901
(1597243090.002783) vcan0 118#7002851838800000
(1597243090.011168) vcan0 266#2300132513004901
(1597243090.012722) vcan0 118#7103851838800000
(1597243090.014132) vcan0 257#97F2696082010000
(1597243090.022451) vcan0 266#2400132513004901
(1597243090.024132) vcan0 118#7204851838800000
(1597243090.034307) vcan0 266#2300132413004901
(1597243090.034789) vcan0 118#7305851838800000
(1597243090.037653) vcan0 257#A9036A6082010000
(1597243090.041660) vcan0 266#2400132513004901
(1597243090.043264) vcan0 118#7406851838800000
(1597243090.051654) vcan0 266#2500132413004901
(1597243090.053068) vcan0 118#7507851838800000
(1597243090.054477) vcan0 257#AA046A6082010000
(1597243090.062161) vcan0 266#2400132413004901
(1597243090.063905) vcan0 118#7508851837800000
(1597243090.073098) vcan0 266#2500132413004901
(1597243090.073485) vcan0 118#7509851836800000
(1597243090.075365) vcan0 257#AB056A6082010000
(1597243090.081572) vcan0 266#2500132413004901
(1597243090.082928) vcan0 118#750A851835800000
(1597243090.091627) vcan0 266#2500132413004901
(1597243090.093322) vcan0 118#760B851835800000
(1597243090.094770) vcan0 257#AC066A6082010000
(1597243090.101514) vcan0 266#2500132413004901
(1597243090.102875) vcan0 118#760C851834800000
(1597243090.112251) vcan0 266#2400132413004901
(1597243090.114665) vcan0 118#770D851834800000
(1597243090.114986) vcan0 257#AD076A6082010000
(1597243090.121630) vcan0 266#2400132413004901
(1597243090.122958) vcan0 118#770E851833800000
(1597243090.132283) vcan0 266#2400132413004901
(1597243090.134317) vcan0 118#780F851833800000
(1597243090.135845) vcan0 257#BE186A6082010000
(1597243090.141711) vcan0 266#2400132413004901
(1597243090.143299) vcan0 118#6900851833800000
(1597243090.151439) vcan0 266#2400132413004901
(1597243090.152895) vcan0 118#6901851832800000
(1597243090.154733) vcan0 257#BF196A6082010000
(1597243090.161662) vcan0 266#2300132413004901
(1597243090.162988) vcan0 118#6A02851832800000
(1597243090.171473) vcan0 266#2300132513004901
(1597243090.174694) vcan0 118#6B03851832800000
(1597243090.175040) vcan0 257#C01A6A6082010000
(1597243090.182830) vcan0 266#2300132413004901
(1597243090.184427) vcan0 118#6B04851831800000
(1597243090.191734) vcan0 266#2200132513004901
(1597243090.193166) vcan0 118#6C05851831800000
(1597243090.194573) vcan0 257#D12B6A6082010000
(1597243090.201524) vcan0 266#2200132413004901
(1597243090.202887) vcan0 118#6C06851830800000
(1597243090.211391) vcan0 266#2100132513004901
(1597243090.214134) vcan0 118#6D07851830800000
(1597243090.214484) vcan0 257#D72C6A6186010000
(1597243090.221797) vcan0 266#2100132412004801
(1597243090.224396) vcan0 118#6F08851831800000
(1597243090.235083) vcan0 266#2000132512004801
(1597243090.235562) vcan0 118#7009851831800000
(1597243090.235888) vcan0 257#E83D6A6186010000
(1597243090.241743) vcan0 266#2000122512004801
(1597243090.243351) vcan0 118#710A851831800000
(1597243090.251703) vcan0 266#1F00122512004801
(1597243090.253291) vcan0 118#720B851831800000
(1597243090.254869) vcan0 257#E93E6A6186010000
(1597243090.262158) vcan0 266#1E00122512004801
(1597243090.263499) vcan0 118#730C851831800000
(1597243090.272736) vcan0 266#1D00122412004801
(1597243090.273152) vcan0 118#750D851832800000
(1597243090.275062) vcan0 257#FA4F6A6186010000
(1597243090.281852) vcan0 266#1E00122512004801
(1597243090.283213) vcan0 118#780E851834800000
(1597243090.291980) vcan0 266#1E00122412004801
(1597243090.294409) vcan0 118#7A0F851835800000
(1597243090.295546) vcan0 257#EB406A6186010000
(1597243090.302235) vcan0 266#1E00122512004801
(1597243090.303595) vcan0 118#6C00851836800000
(1597243090.311446) vcan0 266#1C00122412004801
(1597243090.313393) vcan0 118#6D01851836800000
(1597243090.314804) vcan0 257#EC416A6186010000
(1597243090.321656) vcan0 266#1E00122512004801
(1597243090.322978) vcan0 118#6E02851836800000
(1597243090.331826) vcan0 266#1D00122412004801
(1597243090.333606) vcan0 118#7003851837800000
(1597243090.334919) vcan0 257#FD526A6186010000
(1597243090.342421) vcan0 266#1E00122512004801
(1597243090.343796) vcan0 118#7104851837800000
(1597243090.351360) vcan0 266#1D00122512004801
(1597243090.353984) vcan0 118#7205851837800000
(1597243090.355446) vcan0 257#FE536A6186010000
(1597243090.361466) vcan0 266#1E00122512004801
(1597243090.362830) vcan0 118#7306851837800000
(1597243090.372048) vcan0 266#1E00122512004801
(1597243090.374491) vcan0 118#7407851837800000
(1597243090.374847) vcan0 257#FF546A6186010000
(1597243090.381603) vcan0 266#1E00122412004801
(1597243090.383087) vcan0 118#7508851837800000
(1597243090.391456) vcan0 266#2000122412004801
(1597243090.392914) vcan0 118#7609851837800000
(1597243090.394739) vcan0 257#00556A6186010000
(1597243090.401961) vcan0 266#2000122412004801
(1597243090.403269) vcan0 118#770A851837800000
(1597243090.411611) vcan0 266#2000132412004801
(1597243090.413172) vcan0 118#780B851837800000
(1597243090.414810) vcan0 257#11666A6186010000
(1597243090.422976) vcan0 266#2100132412004801
(1597243090.423874) vcan0 118#7A0C851838800000
(1597243090.431999) vcan0 266#2100132413004801
(1597243090.434081) vcan0 118#7B0D851838800000
(1597243090.435873) vcan0 257#12676A6186010000
(1597243090.442034) vcan0 266#2100132413004801
(1597243090.444161) vcan0 118#7C0E851838800000
(1597243090.451545) vcan0 266#2200132413004801
(1597243090.454290) vcan0 118#7D0F851838800000
(1597243090.454621) vcan0 257#13686A6186010000
(1597243090.461471) vcan0 266#2200132413004801
(1597243090.462962) vcan0 118#6F00851839800000
(1597243090.472990) vcan0 266#2300132413004801
(1597243090.474150) vcan0 118#7001851839800000
(1597243090.475715) vcan0 257#14696A6186010000
(1597243090.481635) vcan0 266#2300132413004801
(1597243090.483302) vcan0 118#7102851839800000
(1597243090.491481) vcan0 266#2500132413004801
(1597243090.492900) vcan0 118#7203851839800000
(1597243090.494281) vcan0 257#156A6A6186010000
(1597243090.501420) vcan0 266#2300132313004801
(1597243090.502830) vcan0 118#7304851839800000
(1597243090.511427) vcan0 266#2600142413004801
(1597243090.512860) vcan0 118#7405851839800000
(1597243090.514240) vcan0 257#267B6A6186010000
(1597243090.521451) vcan0 266#2400132413004701
(1597243090.522855) vcan0 118#7506851839800000
(1597243090.532067) vcan0 266#2600142413004701
(1597243090.533138) vcan0 118#7607851839800000
(1597243090.534724) vcan0 257#277C6A6186010000
(1597243090.541638) vcan0 266#2600132413004701
(1597243090.543127) vcan0 118#7708851839800000
(1597243090.551501) vcan0 266#2600142413004701
(1597243090.554356) vcan0 118#7809851839800000
(1597243090.554706) vcan0 257#287D6A6186010000
(1597243090.561478) vcan0 266#2700142414004701
(1597243090.563613) vcan0 118#790A851839800000
(1597243090.573292) vcan0 266#2600142313004701
(1597243090.575956) vcan0 118#7A0B851839800000
(1597243090.578591) vcan0 257#297E6A6186010000
(1597243090.583317) vcan0 266#2700142314004701
(1597243090.586337) vcan0 118#7B0C851839800000
(1597243090.593303) vcan0 266#2700142414004701
(1597243090.595945) vcan0 118#7C0D851839800000
(1597243090.598599) vcan0 257#2A7F6A6186010000
(1597243090.603574) vcan0 266#2800142314004701
(1597243090.605908) vcan0 118#7D0E851839800000
(1597243090.613270) vcan0 266#2800142314004701
(1597243090.615915) vcan0 118#7E0F851839800000
(1597243090.618563) vcan0 257#1B706A6186010000
(1597243090.623160) vcan0 266#2800142314004601
(1597243090.625804) vcan0 118#6F00851839800000
(1597243090.633364) vcan0 266#2900142214004601
(1597243090.637901) vcan0 118#7001851839800000
(1597243090.644259) vcan0 257#2C816A6186010000
(1597243090.650670) vcan0 266#2A00142414004601
(1597243090.653080) vcan0 118#7102851839800000
(1597243090.658001) vcan0 266#2800142214004601
(1597243090.664757) vcan0 118#7203851839800000
(1597243090.666164) vcan0 257#2D826A6186010000
(1597243090.666674) vcan0 266#2B00142314004601
(1597243090.668938) vcan0 118#7304851839800000
(1597243090.671933) vcan0 266#2900142314004601
(1597243090.673396) vcan0 118#7405851839800000
(1597243090.674776) vcan0 257#2E836A6186010000
(1597243090.681622) vcan0 266#2A00142314004601
(1597243090.683027) vcan0 118#7506851839800000
(1597243090.691570) vcan0 266#2A00142314004601
(1597243090.693849) vcan0 118#7607851839800000
(1597243090.695212) vcan0 257#3F946A6186010000
(1597243090.701488) vcan0 266#2A00142314004601
(1597243090.702871) vcan0 118#7708851839800000
(1597243090.711442) vcan0 266#2A00142214004601
(1597243090.712858) vcan0 118#7809851839800000
(1597243090.714270) vcan0 257#40956A6186010000
(1597243090.721456) vcan0 266#2C00152414004501
(1597243090.722824) vcan0 118#790A851839800000
(1597243090.731615) vcan0 266#2800142214004501
(1597243090.733528) vcan0 118#7A0B851839800000
(1597243090.734922) vcan0 257#41966A6186010000
(1597243090.741632) vcan0 266#2C00152314004501
(1597243090.743079) vcan0 118#7B0C851839800000
(1597243090.751536) vcan0 266#2A00142314004501
(1597243090.754220) vcan0 118#7C0D851839800000
(1597243090.755614) vcan0 257#52A76A6186010000
(1597243090.761463) vcan0 266#2B00142314004501
(1597243090.762891) vcan0 118#7E0E85183A800000
(1597243090.771698) vcan0 266#2B00142214004501
(1597243090.773628) vcan0 118#7E0F851839800000
(1597243090.775088) vcan0 257#53A86A6186010000
(1597243090.781549) vcan0 266#2C00152314004501
(1597243090.782955) vcan0 118#6F00851839800000
(1597243090.791462) vcan0 266#2A00142214004501
(1597243090.793001) vcan0 118#7001851839800000
(1597243090.794526) vcan0 257#54A96A6186010000
(1597243090.801449) vcan0 266#2D00152314004501
(1597243090.802841) vcan0 118#7102851839800000
(1597243090.811509) vcan0 266#2A00142214004501
(1597243090.812910) vcan0 118#7203851839800000
(1597243090.814321) vcan0 257#65BA6A6186010000
(1597243090.821382) vcan0 266#2C00152314004401
(1597243090.823289) vcan0 118#7304851839800000
(1597243090.831633) vcan0 266#2B00142314004401
(1597243090.833121) vcan0 118#7405851839800000
(1597243090.841315) vcan0 257#66BB6A6186010000
(1597243090.843671) vcan0 266#2C00142314004401
(1597243090.845897) vcan0 118#7506851839800000
(1597243090.854077) vcan0 266#2C00142214004401
(1597243090.854797) vcan0 118#7607851839800000
(1597243090.856538) vcan0 257#67BC6A6186010000
(1597243090.862085) vcan0 266#2D00152314004401
(1597243090.863190) vcan0 118#7708851839800000
(1597243090.871580) vcan0 266#2B00142214004401
(1597243090.873364) vcan0 118#7809851839800000
(1597243090.874474) vcan0 257#78CD6A6186010000
(1597243090.884156) vcan0 266#2D00152314004401
(1597243090.884488) vcan0 118#790A851839800000
(1597243090.893333) vcan0 266#2C00152314004401
(1597243090.894366) vcan0 118#7A0B851839800000
(1597243090.895399) vcan0 257#79CE6A6186010000
(1597243090.901362) vcan0 266#2C00152314004401
(1597243090.902749) vcan0 118#7B0C851839800000
(1597243090.912714) vcan0 266#2C00142214004401
(1597243090.913990) vcan0 118#7C0D851839800000
(1597243090.915052) vcan0 257#8ADF6A6186010000
(1597243090.921797) vcan0 266#2D00152314004301
(1597243090.922771) vcan0 118#7E0E85183A800000
(1597243090.931729) vcan0 266#2B00142214004301
(1597243090.933158) vcan0 118#7F0F85183A800000
(1597243090.934415) vcan0 257#7BD06A6186010000
(1597243090.941995) vcan0 266#2D00152314004301
(1597243090.943093) vcan0 118#700085183A800000
(1597243090.951487) vcan0 266#2C00152214004301
(1597243090.952677) vcan0 118#710185183A800000
(1597243090.953992) vcan0 257#8CE16A6186010000
(1597243090.961143) vcan0 266#2C00152314004301
(1597243090.963024) vcan0 118#720285183A800000
(1597243090.971393) vcan0 266#2C00152214004301
(1597243090.973318) vcan0 118#730385183A800000
(1597243090.974825) vcan0 257#8DE26A6186010000
(1597243090.982521) vcan0 266#2D00152314004301
(1597243090.983880) vcan0 118#740485183A800000
(1597243090.991473) vcan0 266#2C00142214004301
(1597243090.992865) vcan0 118#750585183A800000
(1597243090.994264) vcan0 257#A3F36A628A010000
(1597243091.001391) vcan0 266#2D00152214004301
(1597243091.002844) vcan0 118#760685183A800000
(1597243091.011399) vcan0 266#2D00152215004301
(1597243091.012745) vcan0 118#770785183A800000
(1597243091.014057) vcan0 257#A4F46A628A010000
(1597243091.021478) vcan0 266#2D00152215004201
(1597243091.022774) vcan0 118#780885183A800000
(1597243091.031612) vcan0 266#2D00152215004201
(1597243091.032892) vcan0 118#790985183A800000
(1597243091.034218) vcan0 257#B6056B628A010000
(1597243091.042550) vcan0 266#2E00152215004201
(1597243091.045604) vcan0 118#7A0A85183A800000
(1597243091.051779) vcan0 266#2C00152215004201
(1597243091.055186) vcan0 118#7B0B85183A800000
(1597243091.056813) vcan0 257#B7066B628A010000
(1597243091.062573) vcan0 266#2D00152215004201
(1597243091.062910) vcan0 118#7C0C85183A800000
(1597243091.073980) vcan0 266#2D00152215004201
(1597243091.074314) vcan0 118#7D0D85183A800000
(1597243091.075985) vcan0 257#C8176B628A010000
(1597243091.082742) vcan0 266#2E00152215004201
(1597243091.083149) vcan0 118#7E0E85183A800000
(1597243091.094098) vcan0 266#2C00152215004201
(1597243091.094508) vcan0 118#7F0F85183A800000
(1597243091.095369) vcan0 257#C9186B628A010000
(1597243091.102647) vcan0 266#2E00152215004201
(1597243091.103603) vcan0 118#700085183A800000
(1597243091.111587) vcan0 266#2D00152215004201
(1597243091.112798) vcan0 118#710185183A800000
(1597243091.114139) vcan0 257#DA296B628A010000
(1597243091.121096) vcan0 266#2D00152215004101
(1597243091.122598) vcan0 118#720285183A800000
(1597243091.131532) vcan0 266#2D00152215004101
(1597243091.132865) vcan0 118#730385183A800000
(1597243091.134195) vcan0 257#DB2A6B628A010000
(1597243091.141393) vcan0 266#2E00152215004101
(1597243091.142739) vcan0 118#740485183A800000
(1597243091.151099) vcan0 266#2E00152215004101
(1597243091.152756) vcan0 118#750585183A800000
(1597243091.154106) vcan0 257#EC3B6B628A010000
(1597243091.161297) vcan0 266#2E00152215004101
(1597243091.162688) vcan0 118#760685183A800000
(1597243091.171411) vcan0 266#2E00152215004101
(1597243091.173083) vcan0 118#770785183A800000
(1597243091.174229) vcan0 257#FD4C6B628A010000
(1597243091.181408) vcan0 266#2E00152215004101
(1597243091.182820) vcan0 118#780885183A800000
(1597243091.191129) vcan0 266#2E00152215004101
(1597243091.192562) vcan0 118#790985183A800000
(1597243091.194135) vcan0 257#FE4D6B628A010000
(1597243091.201139) vcan0 266#2E00152215004101
(1597243091.202563) vcan0 118#7A0A85183A800000
(1597243091.211104) vcan0 266#2E00152215004101
(1597243091.212572) vcan0 118#7B0B85183A800000
(1597243091.213898) vcan0 257#0F5E6B628A010000
(1597243091.221131) vcan0 266#2E00152215004001
(1597243091.222631) vcan0 118#7C0C85183A800000
(1597243091.231423) vcan0 266#2E00152215004001
(1597243091.232781) vcan0 118#7D0D85183A800000
(1597243091.234109) vcan0 257#105F6B628A010000
(1597243091.242145) vcan0 266#2E00152215004001
(1597243091.246041) vcan0 118#7E0E85183A800000
(1597243091.255205) vcan0 266#2E00152215004001
(1597243091.256995) vcan0 118#7F0F85183A800000
(1597243091.259979) vcan0 257#11606B628A010000
(1597243091.263668) vcan0 266#2E00152215004001
(1597243091.266002) vcan0 118#700085183A800000
(1597243091.271298) vcan0 266#2E00152215004001
(1597243091.273956) vcan0 118#710185183A800000
(1597243091.274269) vcan0 257#12616B628A010000
(1597243091.281924) vcan0 266#2E00152115004001
(1597243091.283705) vcan0 118#720285183A800000
(1597243091.291321) vcan0 266#2F00152115004001
(1597243091.292701) vcan0 118#730385183A800000
(1597243091.294202) vcan0 257#23726B628A010000
(1597243091.302289) vcan0 266#2E00152115004001
(1597243091.303542) vcan0 118#740485183A800000
(1597243091.311164) vcan0 266#2E00152215004001
(1597243091.312621) vcan0 118#750585183A800000
(1597243091.313938) vcan0 257#24736B628A010000
(1597243091.321097) vcan0 266#2E00152115003F01
(1597243091.322526) vcan0 118#760685183A800000
(1597243091.331529) vcan0 266#2E00152115003F01
(1597243091.332869) vcan0 118#780785183B800000
(1597243091.334192) vcan0 257#35846B628A010000
(1597243091.341115) vcan0 266#2E00152115003F01
(1597243091.342561) vcan0 118#790885183B800000
(1597243091.351212) vcan0 266#2F00152115003F01
(1597243091.352648) vcan0 118#7A0985183B800000
(1597243091.353959) vcan0 257#36856B628A010000
(1597243091.361091) vcan0 266#2F00152115003F01
(1597243091.362708) vcan0 118#7B0A85183B800000
(1597243091.372691) vcan0 266#2F00152115003F01
(1597243091.375259) vcan0 118#7C0B85183B800000
(1597243091.377791) vcan0 257#37866B628A010000
(1597243091.383248) vcan0 266#2F00152115003F01
(1597243091.385933) vcan0 118#7D0C85183B800000
(1597243091.392806) vcan0 266#2F00152115003F01
(1597243091.395372) vcan0 118#7E0D85183B800000
(1597243091.397919) vcan0 257#48976B628A010000
(1597243091.402948) vcan0 266#2F00152115003F01
(1597243091.405449) vcan0 118#7F0E85183B800000
(1597243091.412731) vcan0 266#2F00152115003F01
(1597243091.415304) vcan0 118#800F85183B800000
(1597243091.417829) vcan0 257#49986B628A010000
(1597243091.422705) vcan0 266#3000152115003E01
(1597243091.425240) vcan0 118#710085183B800000
(1597243091.432767) vcan0 266#2F00152115003E01
(1597243091.435322) vcan0 118#720185183B800000
(1597243091.437857) vcan0 257#5AA96B628A010000
(1597243091.443173) vcan0 266#3000152115003E01
(1597243091.446308) vcan0 118#730285183B800000
(1597243091.453713) vcan0 266#2F00152115003E01
(1597243091.457706) vcan0 118#740385183B800000
(1597243091.463728) vcan0 257#5BAA6B628A010000
(1597243091.468236) vcan0 266#3000152115003E01
(1597243091.472903) vcan0 118#750485183B800000
(1597243091.475470) vcan0 266#3000152115003E01
(1597243091.476659) vcan0 118#760585183B800000
(1597243091.479275) vcan0 257#5CAB6B628A010000
(1597243091.481745) vcan0 266#3100152115003E01
(1597243091.483166) vcan0 118#770685183B800000
(1597243091.491409) vcan0 266#3000152115003E01
(1597243091.493246) vcan0 118#780785183B800000
(1597243091.495236) vcan0 257#6DBC6B628A010000
(1597243091.501518) vcan0 266#3000152115003E01
(1597243091.502872) vcan0 118#790885183B800000
(1597243091.511591) vcan0 266#3000152115003E01
(1597243091.513168) vcan0 118#7A0985183B800000
(1597243091.514523) vcan0 257#73BD6B638E010000
(1597243091.521375) vcan0 266#3000152115003D01
(1597243091.522761) vcan0 118#7B0A85183B800000
(1597243091.531458) vcan0 266#3100152115003D01
(1597243091.532873) vcan0 118#7C0B85183B800000
(1597243091.534254) vcan0 257#74BE6B638E010000
(1597243091.541649) vcan0 266#3100152115003D01
(1597243091.543016) vcan0 118#7D0C85183B800000
(1597243091.551430) vcan0 266#3000152115003D01
(1597243091.553174) vcan0 118#7D0D85183A800000
(1597243091.554256) vcan0 257#85CF6B638E010000
(1597243091.561405) vcan0 266#3000152115003D01
(1597243091.562901) vcan0 118#7E0E85183A800000
(1597243091.571625) vcan0 266#3100162115003D01
(1597243091.573033) vcan0 118#7F0F85183A800000
(1597243091.574472) vcan0 257#76C06B638E010000
(1597243091.581583) vcan0 266#3000152115003D01
(1597243091.582970) vcan0 118#6F00851839800000
(1597243091.591408) vcan0 266#3000152115003D01
(1597243091.592845) vcan0 118#7001851839800000
(1597243091.594256) vcan0 257#77C16B638E010000
(1597243091.601356) vcan0 266#3000152115003D01
(1597243091.603263) vcan0 118#7102851839800000
(1597243091.611437) vcan0 266#3000152115003D01
(1597243091.612887) vcan0 118#7203851839800000
(1597243091.614271) vcan0 257#88D26B638E010000
(1597243091.621342) vcan0 266#3000152115003C01
(1597243091.622791) vcan0 118#7304851839800000
(1597243091.631470) vcan0 266#2F00152115003C01
(1597243091.633298) vcan0 118#7405851839800000
(1597243091.634471) vcan0 257#89D36B638E010000
(1597243091.641673) vcan0 266#2F00152115003C01
(1597243091.643047) vcan0 118#7406851838800000
(1597243091.651391) vcan0 266#2F00152115003C01
(1597243091.653993) vcan0 118#7607851839800000
(1597243091.655691) vcan0 257#9AE46B638E010000
(1597243091.661675) vcan0 266#2F00152115003C01
(1597243091.664503) vcan0 118#7708851839800000
(1597243091.671991) vcan0 266#2E00152115003C01
(1597243091.674388) vcan0 118#7809851839800000
(1597243091.675524) vcan0 257#9BE56B638E010000
(1597243091.681795) vcan0 266#2F00152115003C01
(1597243091.683172) vcan0 118#790A851839800000
(1597243091.691825) vcan0 266#2E00152015003C01
(1597243091.693275) vcan0 118#7A0B851839800000
(1597243091.694474) vcan0 257#ACF66B638E010000
(1597243091.702732) vcan0 266#2E00152115003C01
(1597243091.703135) vcan0 118#7B0C851839800000
(1597243091.712042) vcan0 266#2D00152115003C01
(1597243091.713892) vcan0 118#7C0D851839800000
(1597243091.715032) vcan0 257#BE076C638E010000
(1597243091.722102) vcan0 266#2D00152115003C01
(1597243091.723107) vcan0 118#7D0E851839800000
(1597243091.731718) vcan0 266#2C00152115003C01
(1597243091.733143) vcan0 118#7E0F851839800000
(1597243091.734518) vcan0 257#CF186C638E010000
(1597243091.743201) vcan0 266#2D00152015003C01
(1597243091.744222) vcan0 118#6F00851839800000
(1597243091.751628) vcan0 266#2D00152015003C01
(1597243091.753090) vcan0 118#7001851839800000
(1597243091.754379) vcan0 257#D0196C638E010000
(1597243091.762199) vcan0 266#2C00152015003C01
(1597243091.763209) vcan0 118#7102851839800000
(1597243091.771772) vcan0 266#2D00152115003C01
(1597243091.773150) vcan0 118#7203851839800000
(1597243091.774487) vcan0 257#E12A6C638E010000
(1597243091.782161) vcan0 266#2C00152015003C01
(1597243091.783303) vcan0 118#7304851839800000
(1597243091.792170) vcan0 266#2C00152114003C01
(1597243091.794320) vcan0 118#7405851839800000
(1597243091.794717) vcan0 257#F23B6C638E010000
(1597243091.801925) vcan0 266#2B00152114003C01
(1597243091.803026) vcan0 118#7506851839800000
(1597243091.812237) vcan0 266#2B00152014003C01
(1597243091.813558) vcan0 118#7607851839800000
(1597243091.815243) vcan0 257#F33C6C638E010000
(1597243091.821948) vcan0 266#2C00152014003B01
(1597243091.822949) vcan0 118#7708851839800000
(1597243091.831926) vcan0 266#2C00152014003B01
(1597243091.833651) vcan0 118#7809851839800000
(1597243091.834753) vcan0 257#F43D6C638E010000
(1597243091.841786) vcan0 266#2C00152114003B01
(1597243091.843569) vcan0 118#790A851839800000
(1597243091.853330) vcan0 266#2C00152014003B01
(1597243091.854344) vcan0 118#7A0B851839800000
(1597243091.855120) vcan0 257#054E6C638E010000
(1597243091.862190) vcan0 266#2C00152114003B01
(1597243091.864352) vcan0 118#7B0C851839800000
(1597243091.872481) vcan0 266#2B00152014003B01
(1597243091.875588) vcan0 118#7C0D851839800000
(1597243091.876039) vcan0 257#064F6C638E010000
(1597243091.881917) vcan0 266#2B00142014003B01
(1597243091.883573) vcan0 118#7D0E851839800000
(1597243091.891474) vcan0 266#2A00152014003B01
(1597243091.892855) vcan0 118#7E0F851839800000
(1597243091.894252) vcan0 257#07506C638E010000
(1597243091.901290) vcan0 266#2B00142014003B01
(1597243091.902749) vcan0 118#6F00851839800000
(1597243091.911397) vcan0 266#2C00152014003B01
(1597243091.912804) vcan0 118#7001851839800000
(1597243091.914289) vcan0 257#08516C638E010000
(1597243091.921303) vcan0 266#2B00152014003B01
(1597243091.923199) vcan0 118#7102851839800000
(1597243091.931793) vcan0 266#2C00152014003B01
(1597243091.933201) vcan0 118#7203851839800000
(1597243091.934597) vcan0 257#09526C638E010000
(1597243091.942268) vcan0 266#2B00152014003B01
(1597243091.943658) vcan0 118#7304851839800000
(1597243091.951380) vcan0 266#2C00152014003B01
(1597243091.952784) vcan0 118#7405851839800000
(1597243091.954164) vcan0 257#1A636C638E010000
(1597243091.961485) vcan0 266#2B00152014003B01
(1597243091.962935) vcan0 118#7506851839800000
(1597243091.972000) vcan0 266#2B00152014003B01
(1597243091.973363) vcan0 118#7607851839800000
(1597243091.974757) vcan0 257#1B646C638E010000
(1597243091.981601) vcan0 266#2B00152114003B01
(1597243091.983037) vcan0 118#7708851839800000
(1597243091.991371) vcan0 266#2A00142014003B01
(1597243091.992775) vcan0 118#7809851839800000
(1597243091.994225) vcan0 257#1C656C638E010000
(1597243092.001441) vcan0 266#2B00142014003B01
(1597243092.002849) vcan0 118#790A851839800000
(1597243092.011656) vcan0 266#2A00142014003B01
(1597243092.013054) vcan0 118#7A0B851839800000
(1597243092.014445) vcan0 257#2D766C638E010000
(1597243092.021202) vcan0 266#2B00152014003A01
(1597243092.023162) vcan0 118#7B0C851839800000
(1597243092.031499) vcan0 266#2B00152014003A01
(1597243092.032891) vcan0 118#7C0D851839800000
(1597243092.034739) vcan0 257#33776C6492010000
(1597243092.041692) vcan0 266#2B00142014003A01
(1597243092.043091) vcan0 118#7D0E851839800000
(1597243092.051330) vcan0 266#2B00152114003A01
(1597243092.052749) vcan0 118#7E0F851839800000
(1597243092.054144) vcan0 257#44886C6492010000
(1597243092.061870) vcan0 266#2B00142014003A01
(1597243092.064406) vcan0 118#6F00851839800000
(1597243092.072412) vcan0 266#2B00142014003A01
(1597243092.074111) vcan0 118#6F01851838800000
(1597243092.076776) vcan0 257#45896C6492010000
(1597243092.083129) vcan0 266#2A00142014003A01
(1597243092.083466) vcan0 118#7002851838800000
(1597243092.094078) vcan0 266#2A00142014003A01
(1597243092.094416) vcan0 118#7103851838800000
(1597243092.095859) vcan0 257#569A6C6492010000
(1597243092.102761) vcan0 266#2A00152014003A01
(1597243092.103092) vcan0 118#7204851838800000
(1597243092.114189) vcan0 266#2A00142014003A01
(1597243092.114535) vcan0 118#7305851838800000
(1597243092.115973) vcan0 257#579B6C6492010000
(1597243092.122741) vcan0 266#2A00142014003901
(1597243092.123067) vcan0 118#7406851838800000
(1597243092.134253) vcan0 266#2900142014003901
(1597243092.134596) vcan0 118#7507851838800000
(1597243092.134872) vcan0 257#68AC6C6492010000
(1597243092.142247) vcan0 266#2A00142014003901
(1597243092.143607) vcan0 118#7608851838800000
(1597243092.151439) vcan0 266#2A00142014003901
(1597243092.152829) vcan0 118#7709851838800000
(1597243092.154213) vcan0 257#69AD6C6492010000
(1597243092.161195) vcan0 266#2A00142014003901
(1597243092.162787) vcan0 118#780A851838800000
(1597243092.171939) vcan0 266#2A00142014003901
(1597243092.173325) vcan0 118#780B851837800000
(1597243092.174725) vcan0 257#7ABE6C6492010000
(1597243092.183117) vcan0 266#2A00142014003901
(1597243092.185798) vcan0 118#790C851837800000
(1597243092.193052) vcan0 266#2A00152014003901
(1597243092.195716) vcan0 118#7A0D851837800000
(1597243092.198379) vcan0 257#7BBF6C6492010000
(1597243092.203692) vcan0 266#2900142014003901
(1597243092.206330) vcan0 118#7B0E851837800000
(1597243092.213304) vcan0 266#2900142014003901
(1597243092.215980) vcan0 118#7C0F851837800000
(1597243092.218809) vcan0 257#7CC06C6492010000
(1597243092.223065) vcan0 266#2900142014003801
(1597243092.226522) vcan0 118#6D00851837800000
(1597243092.233082) vcan0 266#2900142014003801
(1597243092.235741) vcan0 118#6E01851837800000
(1597243092.239138) vcan0 257#7DC16C6492010000
(1597243092.243416) vcan0 266#2900142114003801
(1597243092.246083) vcan0 118#6F02851837800000
(1597243092.253156) vcan0 266#2800142014003801
(1597243092.255787) vcan0 118#7003851837800000
(1597243092.258456) vcan0 257#7EC26C6492010000
(1597243092.264172) vcan0 266#2800142014003801
(1597243092.267186) vcan0 118#7104851837800000
(1597243092.274062) vcan0 266#2700142014003801
(1597243092.277179) vcan0 118#7205851837800000
(1597243092.281447) vcan0 257#8FD36C6492010000
(1597243092.282672) vcan0 266#2700142014003801
(1597243092.285269) vcan0 118#7306851837800000
(1597243092.291933) vcan0 266#2700142014003801
(1597243092.293607) vcan0 118#7407851837800000
(1597243092.296024) vcan0 257#90D46C6492010000
(1597243092.301442) vcan0 266#2600142014003801
(1597243092.303112) vcan0 118#7508851837800000
(1597243092.311323) vcan0 266#2700142014003801
(1597243092.313977) vcan0 118#7609851837800000
(1597243092.314306) vcan0 257#91D56C6492010000
(1597243092.322603) vcan0 266#2700142014003801
(1597243092.322924) vcan0 118#770A851837800000
(1597243092.332167) vcan0 266#2700142014003801
(1597243092.333738) vcan0 118#790B851838800000
(1597243092.334900) vcan0 257#A2E66C6492010000
(1597243092.342307) vcan0 266#2700142014003801
(1597243092.343398) vcan0 118#7A0C851838800000
(1597243092.354167) vcan0 266#2600142014003801
(1597243092.354508) vcan0 118#7B0D851838800000
(1597243092.354798) vcan0 257#B3F76C6492010000
(1597243092.362639) vcan0 266#2700142014003801
(1597243092.362964) vcan0 118#7C0E851838800000
(1597243092.372249) vcan0 266#2600141F14003801
(1597243092.374534) vcan0 118#7D0F851838800000
(1597243092.374856) vcan0 257#B4F86C6492010000
(1597243092.381644) vcan0 266#2700142014003801
(1597243092.382938) vcan0 118#6E00851838800000
(1597243092.391859) vcan0 266#2700142014003801
(1597243092.394125) vcan0 118#6F01851838800000
(1597243092.395200) vcan0 257#C6096D6492010000
(1597243092.401889) vcan0 266#2600142014003801
(1597243092.402962) vcan0 118#7002851838800000
(1597243092.411563) vcan0 266#2700142014003801
(1597243092.413374) vcan0 118#7103851838800000
(1597243092.414489) vcan0 257#C70A6D6492010000
(1597243092.421631) vcan0 266#2600142014003801
(1597243092.422723) vcan0 118#7204851838800000
(1597243092.431911) vcan0 266#2700142014003801
(1597243092.432935) vcan0 118#7305851838800000
(1597243092.434146) vcan0 257#D81B6D6492010000
(1597243092.443191) vcan0 266#2700142014003801
(1597243092.444699) vcan0 118#7406851838800000
(1597243092.453904) vcan0 266#2700141F14003801
(1597243092.454262) vcan0 118#7507851838800000
(1597243092.455683) vcan0 257#D91C6D6492010000
(1597243092.461554) vcan0 266#2700142014003801
(1597243092.462725) vcan0 118#7608851838800000
(1597243092.473818) vcan0 266#2700142014003801
(1597243092.475338) vcan0 118#7709851838800000
(1597243092.478180) vcan0 257#EA2D6D6492010000
(1597243092.483982) vcan0 266#2700142014003801
(1597243092.485325) vcan0 118#780A851838800000
(1597243092.491852) vcan0 266#2700142014003801
(1597243092.494346) vcan0 118#790B851838800000
(1597243092.494689) vcan0 257#FB3E6D6492010000
(1597243092.501987) vcan0 266#2700141F14003801
(1597243092.503062) vcan0 118#7A0C851838800000
(1597243092.511744) vcan0 266#2700142014003801
(1597243092.513848) vcan0 118#7B0D851838800000
(1597243092.515751) vcan0 257#FC3F6D6492010000
(1597243092.522082) vcan0 266#2700141F14003701
(1597243092.522710) vcan0 118#7C0E851838800000
(1597243092.531078) vcan0 266#2800142014003701
(1597243092.533930) vcan0 118#7D0F851838800000
(1597243092.534263) vcan0 257#02406D6596010000
(1597243092.542840) vcan0 266#2700142014003701
(1597243092.543156) vcan0 118#6E00851838800000
(1597243092.551024) vcan0 266#2700142014003701
(1597243092.552891) vcan0 118#6F01851838800000
(1597243092.555106) vcan0 257#03416D6596010000
(1597243092.562550) vcan0 266#2800142014003701
(1597243092.562865) vcan0 118#7002851838800000
(1597243092.571542) vcan0 266#2700142014003701
(1597243092.574203) vcan0 118#7103851838800000
(1597243092.574527) vcan0 257#04426D6596010000
(1597243092.581897) vcan0 266#2700141F14003701
(1597243092.582962) vcan0 118#7204851838800000
(1597243092.591799) vcan0 266#2800142014003701
(1597243092.592800) vcan0 118#7305851838800000
(1597243092.593906) vcan0 257#15536D6596010000
(1597243092.602373) vcan0 266#2700141F14003701
(1597243092.602714) vcan0 118#7406851838800000
(1597243092.613689) vcan0 266#2700141F14003701
(1597243092.614028) vcan0 118#7407851837800000
(1597243092.614939) vcan0 257#16546D6596010000
(1597243092.622379) vcan0 266#2800141F14003501
(1597243092.622702) vcan0 118#7608851838800000
(1597243092.631786) vcan0 266#2700141F14003501
(1597243092.634359) vcan0 118#7609851837800000
(1597243092.634671) vcan0 257#27656D6596010000
(1597243092.642825) vcan0 266#2700142014003501
(1597243092.643162) vcan0 118#770A851837800000
(1597243092.651025) vcan0 266#2700141F14003501
(1597243092.653988) vcan0 118#780B851837800000
(1597243092.654312) vcan0 257#28666D6596010000
(1597243092.662452) vcan0 266#2700141F14003501
(1597243092.662783) vcan0 118#780C851836800000
(1597243092.677033) vcan0 266#2700141F14003501
(1597243092.677408) vcan0 118#790D851836800000
(1597243092.677695) vcan0 257#29676D6596010000
(1597243092.683305) vcan0 266#2600141F14003501
(1597243092.685974) vcan0 118#790E851835800000
(1597243092.691429) vcan0 266#2700141F14003501
(1597243092.693459) vcan0 118#7A0F851835800000
(1597243092.694561) vcan0 257#3A786D6596010000
(1597243092.702534) vcan0 266#2700141F14003501
(1597243092.702874) vcan0 118#6B00851835800000
(1597243092.713849) vcan0 266#2600141F14003501
(1597243092.714191) vcan0 118#6C01851835800000
(1597243092.715660) vcan0 257#3B796D6596010000
(1597243092.721088) vcan0 266#2600142014003501
(1597243092.722616) vcan0 118#6C02851834800000
(1597243092.731023) vcan0 266#2600141F14003501
(1597243092.733861) vcan0 118#6D03851834800000
(1597243092.734186) vcan0 257#4C8A6D6596010000
(1597243092.742785) vcan0 266#2500142014003501
(1597243092.743115) vcan0 118#6E04851834800000
(1597243092.752218) vcan0 266#2600142014003501
(1597243092.753496) vcan0 118#6E05851833800000
(1597243092.754847) vcan0 257#4D8B6D6596010000
(1597243092.761820) vcan0 266#2500141F14003501
(1597243092.762818) vcan0 118#6F06851833800000
(1597243092.771476) vcan0 266#2600142014003501
(1597243092.774227) vcan0 118#7007851833800000
